Time [s],Packet ID,MOSI,MISO
0.010497400000000,,0b  1000  0000,
0.010512400000000,,0b  1001  1010,
0.010527400000000,,0b  0000  0011,
0.010637100000000,,0b  1000  0001,
0.010652200000000,,0b  0010  1001,
0.010667200000000,,0b  0111  0100,
0.010737900000000,,0b  0000  0010,
0.010752900000000,,0b  0010  1011,
0.010767900000000,,0b  0111  0100,
0.110571000000000,,0b  0000  0000,
0.110586000000000,,0b  1001  1110,
0.110601000000000,,0b  0000  0011,
0.110711000000000,,0b  1000  0001,
0.110726000000000,,0b  0010  1001,
0.110741000000000,,0b  0111  0100,
0.110809400000000,,0b  0000  0010,
0.110824400000000,,0b  0010  1101,
0.110839400000000,,0b  0111  0100,
0.210642600000000,,0b  1000  0000,
0.210657600000000,,0b  1001  1010,
0.210672600000000,,0b  0000  0011,
0.210781400000000,,0b  1000  0001,
0.210796500000000,,0b  0010  1010,
0.210811500000000,,0b  0111  0100,
0.210880900000000,,0b  0000  0010,
0.210895900000000,,0b  0010  1101,
0.210910900000000,,0b  0111  0100,
0.310707900000000,,0b  0000  0000,
0.310722800000000,,0b  1001  1110,
0.310737800000000,,0b  0000  0011,
0.310848200000000,,0b  1000  0001,
0.310863300000000,,0b  0010  1010,
0.310878300000000,,0b  0111  0100,
0.310947700000000,,0b  0000  0010,
0.310962700000000,,0b  0010  1110,
0.310977700000000,,0b  0111  0100,
0.410778100000000,,0b  0000  0000,
0.410793100000000,,0b  1001  1110,
0.410808100000000,,0b  0000  0011,
0.410918400000000,,0b  1000  0001,
0.410933400000000,,0b  0010  1100,
0.410948500000000,,0b  0111  0100,
0.411017500000000,,0b  0000  0010,
0.411032500000000,,0b  0010  1110,
0.411047500000000,,0b  0111  0100,
0.510847100000000,,0b  1000  0000,
0.510862000000000,,0b  1001  1010,
0.510877000000000,,0b  0000  0011,
0.510986900000000,,0b  1000  0001,
0.511001900000000,,0b  0010  1100,
0.511016900000000,,0b  0111  0100,
0.511086700000000,,0b  0000  0010,
0.511101700000000,,0b  0011  0000,
0.511116700000000,,0b  0111  0100,
0.610916000000000,,0b  1000  0000,
0.610931000000000,,0b  1001  1010,
0.610946000000000,,0b  0000  0011,
0.611056700000000,,0b  1000  0001,
0.611071700000000,,0b  0010  1100,
0.611086700000000,,0b  0111  0100,
0.611155900000000,,0b  0000  0010,
0.611170900000000,,0b  0011  0000,
0.611185900000000,,0b  0111  0100,
0.710992300000000,,0b  1000  0000,
0.711007300000000,,0b  1001  1010,
0.711022300000000,,0b  0000  0011,
0.711132200000000,,0b  0000  0001,
0.711147200000000,,0b  0010  1101,
0.711162200000000,,0b  0111  0100,
0.711231400000000,,0b  0000  0010,
0.711246400000000,,0b  0011  0000,
0.711261400000000,,0b  0111  0100,
0.811059200000000,,0b  1000  0000,
0.811074200000000,,0b  1001  1111,
0.811089200000000,,0b  0000  0011,
0.811200000000000,,0b  0000  0001,
0.811215000000000,,0b  0010  1101,
0.811230000000000,,0b  0111  0100,
0.811299900000000,,0b  0000  0010,
0.811314900000000,,0b  0011  0000,
0.811329800000000,,0b  0111  0100,
0.911127500000000,,0b  0000  0000,
0.911142500000000,,0b  1001  1110,
0.911157500000000,,0b  0000  0011,
0.911267400000000,,0b  0000  0001,
0.911282500000000,,0b  0010  1101,
0.911297500000000,,0b  0111  0100,
0.911367000000000,,0b  0000  0010,
0.911382000000000,,0b  0011  0000,
0.911397000000000,,0b  0111  0100,
1.011195800000000,,0b  1000  0000,
1.011210800000000,,0b  1001  1111,
1.011225800000000,,0b  0000  0011,
1.011334900000000,,0b  0000  0001,
1.011349900000000,,0b  0010  1101,
1.011365000000000,,0b  0111  0100,
1.011434200000000,,0b  1000  0010,
1.011449200000000,,0b  0011  0001,
1.011464200000000,,0b  0111  0100,
1.111265700000000,,0b  1000  0000,
1.111280700000000,,0b  1001  1010,
1.111295700000000,,0b  0000  0011,
1.111406700000000,,0b  0000  0001,
1.111421800000000,,0b  0010  1101,
1.111436800000000,,0b  0111  0100,
1.111505300000000,,0b  1000  0010,
1.111520300000000,,0b  0011  0001,
1.111535300000000,,0b  0111  0100,
1.211331000000000,,0b  1000  0000,
1.211346000000000,,0b  1001  1010,
1.211361000000000,,0b  0000  0011,
1.211471800000000,,0b  0000  0001,
1.211486900000000,,0b  0010  1101,
1.211501900000000,,0b  0111  0100,
1.211569200000000,,0b  1000  0010,
1.211584200000000,,0b  0010  1111,
1.211599200000000,,0b  0111  0100,
1.311400300000000,,0b  0000  0000,
1.311415200000000,,0b  1001  1110,
1.311430200000000,,0b  0000  0011,
1.311539300000000,,0b  0000  0001,
1.311554300000000,,0b  0010  1101,
1.311569400000000,,0b  0111  0100,
1.311638300000000,,0b  1000  0010,
1.311653300000000,,0b  0010  1111,
1.311668300000000,,0b  0111  0100,
1.411468200000000,,0b  1000  0000,
1.411483200000000,,0b  1001  1111,
1.411498200000000,,0b  0000  0011,
1.411608400000000,,0b  1000  0001,
1.411623500000000,,0b  0010  1100,
1.411638500000000,,0b  0111  0100,
1.411707200000000,,0b  0000  0010,
1.411722100000000,,0b  0011  0000,
1.411737100000000,,0b  0111  0100,
1.511536500000000,,0b  1000  0000,
1.511551400000000,,0b  1001  1111,
1.511566400000000,,0b  0000  0011,
1.511676900000000,,0b  1000  0001,
1.511691900000000,,0b  0010  1100,
1.511707000000000,,0b  0111  0100,
1.511775300000000,,0b  0000  0010,
1.511790300000000,,0b  0010  1110,
1.511805300000000,,0b  0111  0100,
1.611606100000000,,0b  1000  0000,
1.611621000000000,,0b  1001  1111,
1.611636000000000,,0b  0000  0011,
1.611745000000000,,0b  1000  0001,
1.611760100000000,,0b  0010  1010,
1.611775100000000,,0b  0111  0100,
1.611843500000000,,0b  0000  0010,
1.611858400000000,,0b  0010  1101,
1.611873400000000,,0b  0111  0100,
1.711673000000000,,0b  1000  0000,
1.711688000000000,,0b  1001  1100,
1.711703000000000,,0b  0000  0011,
1.711812200000000,,0b  1000  0001,
1.711827200000000,,0b  0010  1001,
1.711842200000000,,0b  0111  0100,
1.711911300000000,,0b  0000  0010,
1.711926300000000,,0b  0010  1011,
1.711941300000000,,0b  0111  0100,
1.811740300000000,,0b  1000  0000,
1.811755200000000,,0b  1001  1111,
1.811770200000000,,0b  0000  0011,
1.811880300000000,,0b  0000  0001,
1.811895300000000,,0b  0010  0111,
1.811910400000000,,0b  0111  0100,
1.811979400000000,,0b  1000  0010,
1.811994400000000,,0b  0010  1010,
1.812009400000000,,0b  0111  0100,
1.911808800000000,,0b  1000  0000,
1.911823800000000,,0b  1001  1111,
1.911838800000000,,0b  0000  0011,
1.911948400000000,,0b  1000  0001,
1.911963500000000,,0b  0010  0101,
1.911978500000000,,0b  0111  0100,
1.912047200000000,,0b  1000  0010,
1.912062200000000,,0b  0010  1001,
1.912077200000000,,0b  0111  0100,
2.011877100000000,,0b  1000  0000,
2.011892100000000,,0b  1001  1111,
2.011907100000000,,0b  0000  0011,
2.012017200000000,,0b  1000  0001,
2.012032300000000,,0b  0010  0011,
2.012047300000000,,0b  0111  0100,
2.012116100000000,,0b  0000  0010,
2.012131000000000,,0b  0010  0111,
2.012146000000000,,0b  0111  0100,
2.111945400000000,,0b  1000  0000,
2.111960400000000,,0b  1001  1100,
2.111975300000000,,0b  0000  0011,
2.112086400000000,,0b  1000  0001,
2.112101400000000,,0b  0010  0011,
2.112116400000000,,0b  0111  0100,
2.112185200000000,,0b  1000  0010,
2.112200200000000,,0b  0010  0110,
2.112215200000000,,0b  0111  0100,
2.212012600000000,,0b  1000  0000,
2.212027600000000,,0b  1001  1100,
2.212042600000000,,0b  0000  0011,
2.212152200000000,,0b  0000  0001,
2.212167200000000,,0b  0010  0010,
2.212182200000000,,0b  0111  0100,
2.212252300000000,,0b  1000  0010,
2.212267300000000,,0b  0010  0101,
2.212282300000000,,0b  0111  0100,
2.312082900000000,,0b  1000  0000,
2.312097900000000,,0b  1001  1100,
2.312112900000000,,0b  0000  0011,
2.312223600000000,,0b  0000  0001,
2.312238700000000,,0b  0010  0001,
2.312253700000000,,0b  0111  0100,
2.312321800000000,,0b  1000  0010,
2.312336800000000,,0b  0010  0011,
2.312351800000000,,0b  0111  0100,
2.412151100000000,,0b  1000  0000,
2.412166100000000,,0b  1001  1111,
2.412181100000000,,0b  0000  0011,
2.412291400000000,,0b  1000  0001,
2.412306500000000,,0b  0001  1111,
2.412321500000000,,0b  0111  0100,
2.412390000000000,,0b  0000  0010,
2.412405000000000,,0b  0010  0001,
2.412419900000000,,0b  0111  0100,
2.512222800000000,,0b  1000  0000,
2.512237800000000,,0b  1001  1111,
2.512252800000000,,0b  0000  0011,
2.512361600000000,,0b  0000  0001,
2.512376600000000,,0b  0001  1110,
2.512391600000000,,0b  0111  0100,
2.512461100000000,,0b  1000  0010,
2.512476100000000,,0b  0010  0000,
2.512491100000000,,0b  0111  0100,
2.612289400000000,,0b  1000  0000,
2.612304300000000,,0b  1001  1100,
2.612319300000000,,0b  0000  0011,
2.612428400000000,,0b  1000  0001,
2.612443400000000,,0b  0001  1100,
2.612458400000000,,0b  0111  0100,
2.612526900000000,,0b  1000  0010,
2.612541900000000,,0b  0010  0000,
2.612556900000000,,0b  0111  0100,
2.712356300000000,,0b  1000  0000,
2.712371300000000,,0b  1001  1100,
2.712386300000000,,0b  0000  0011,
2.712495800000000,,0b  1000  0001,
2.712510800000000,,0b  0001  1100,
2.712525900000000,,0b  0111  0100,
2.712593700000000,,0b  1000  0010,
2.712608700000000,,0b  0010  0000,
2.712623700000000,,0b  0111  0100,
2.812423900000000,,0b  1000  0000,
2.812438900000000,,0b  1001  1100,
2.812453900000000,,0b  0000  0011,
2.812563900000000,,0b  1000  0001,
2.812579000000000,,0b  0001  1100,
2.812594000000000,,0b  0111  0100,
2.812663800000000,,0b  1000  0010,
2.812678800000000,,0b  0001  1111,
2.812693800000000,,0b  0111  0100,
2.912492800000000,,0b  1000  0000,
2.912507800000000,,0b  1001  1100,
2.912522800000000,,0b  0000  0011,
2.912633100000000,,0b  1000  0001,
2.912648100000000,,0b  0001  1100,
2.912663100000000,,0b  0111  0100,
2.912731700000000,,0b  1000  0010,
2.912746600000000,,0b  0001  1111,
2.912761600000000,,0b  0111  0100,
3.012567400000000,,0b  1000  0000,
3.012582400000000,,0b  1001  1100,
3.012597400000000,,0b  0000  0011,
3.012707600000000,,0b  0000  0001,
3.012722600000000,,0b  0001  1011,
3.012737600000000,,0b  0111  0100,
3.012808100000000,,0b  0000  0010,
3.012823100000000,,0b  0001  1101,
3.012838100000000,,0b  0111  0100,
3.112638300000000,,0b  1000  0000,
3.112653300000000,,0b  1001  1100,
3.112668300000000,,0b  0000  0011,
3.112778700000000,,0b  1000  0001,
3.112793700000000,,0b  0001  1100,
3.112808800000000,,0b  0111  0100,
3.112877900000000,,0b  0000  0010,
3.112892900000000,,0b  0001  1101,
3.112907900000000,,0b  0111  0100,
3.212709900000000,,0b  1000  0000,
3.212724900000000,,0b  1001  1100,
3.212739900000000,,0b  0000  0011,
3.212849800000000,,0b  1000  0001,
3.212864800000000,,0b  0001  1100,
3.212879900000000,,0b  0111  0100,
3.212949400000000,,0b  1000  0010,
3.212964400000000,,0b  0001  1111,
3.212979400000000,,0b  0111  0100,
3.312775100000000,,0b  1000  0000,
3.312790100000000,,0b  1001  1100,
3.312805100000000,,0b  0000  0011,
3.312915300000000,,0b  1000  0001,
3.312930300000000,,0b  0001  1100,
3.312945300000000,,0b  0111  0100,
3.313014500000000,,0b  1000  0010,
3.313029500000000,,0b  0001  1111,
3.313044500000000,,0b  0111  0100,
3.412846700000000,,0b  0000  0000,
3.412861700000000,,0b  1001  1101,
3.412876700000000,,0b  0000  0011,
3.412986100000000,,0b  1000  0001,
3.413001100000000,,0b  0001  1100,
3.413016100000000,,0b  0111  0100,
3.413085300000000,,0b  1000  0010,
3.413100300000000,,0b  0010  0000,
3.413115300000000,,0b  0111  0100,
3.512915600000000,,0b  0000  0000,
3.512930600000000,,0b  1001  1101,
3.512945600000000,,0b  0000  0011,
3.513056900000000,,0b  1000  0001,
3.513071900000000,,0b  0001  1100,
3.513086900000000,,0b  0111  0100,
3.513155400000000,,0b  1000  0010,
3.513170400000000,,0b  0010  0000,
3.513185400000000,,0b  0111  0100,
3.612984200000000,,0b  1000  0000,
3.612999200000000,,0b  1001  1111,
3.613014200000000,,0b  0000  0011,
3.613124000000000,,0b  0000  0001,
3.613139000000000,,0b  0001  1110,
3.613154100000000,,0b  0111  0100,
3.613224900000000,,0b  1000  0010,
3.613239900000000,,0b  0010  0000,
3.613254900000000,,0b  0111  0100,
3.713055100000000,,0b  0000  0000,
3.713070100000000,,0b  1001  1101,
3.713085100000000,,0b  0000  0011,
3.713194400000000,,0b  0000  0001,
3.713209500000000,,0b  0001  1110,
3.713224500000000,,0b  0111  0100,
3.713294300000000,,0b  0000  0010,
3.713309300000000,,0b  0010  0001,
3.713324300000000,,0b  0111  0100,
3.813127000000000,,0b  1000  0000,
3.813142000000000,,0b  1010  0000,
3.813157000000000,,0b  0000  0011,
3.813266600000000,,0b  0000  0001,
3.813281600000000,,0b  0001  1110,
3.813296600000000,,0b  0111  0100,
3.813365100000000,,0b  0000  0010,
3.813380100000000,,0b  0010  0001,
3.813395100000000,,0b  0111  0100,
3.913196200000000,,0b  1000  0000,
3.913211200000000,,0b  1001  1100,
3.913226200000000,,0b  0000  0011,
3.913335000000000,,0b  1000  0001,
3.913350100000000,,0b  0001  1111,
3.913365100000000,,0b  0111  0100,
3.913434900000000,,0b  1000  0010,
3.913449900000000,,0b  0010  0011,
3.913464900000000,,0b  0111  0100,
4.013267100000000,,0b  1000  0000,
4.013282100000000,,0b  1001  1100,
4.013297100000000,,0b  0000  0011,
4.013408500000000,,0b  1000  0001,
4.013423500000000,,0b  0001  1111,
4.013438600000000,,0b  0111  0100,
4.013506700000000,,0b  1000  0010,
4.013521700000000,,0b  0010  0011,
4.013536700000000,,0b  0111  0100,
4.113339000000000,,0b  1000  0000,
4.113354000000000,,0b  1001  1100,
4.113369000000000,,0b  0000  0011,
4.113478600000000,,0b  0000  0001,
4.113493700000000,,0b  0010  0001,
4.113508700000000,,0b  0111  0100,
4.113577500000000,,0b  1000  0010,
4.113592500000000,,0b  0010  0011,
4.113607500000000,,0b  0111  0100,
4.213407300000000,,0b  0000  0000,
4.213422300000000,,0b  1001  1101,
4.213437200000000,,0b  0000  0011,
4.213547400000000,,0b  0000  0001,
4.213562500000000,,0b  0010  0001,
4.213577500000000,,0b  0111  0100,
4.213647600000000,,0b  1000  0010,
4.213662600000000,,0b  0010  0011,
4.213677600000000,,0b  0111  0100,
4.313481200000000,,0b  0000  0000,
4.313496100000000,,0b  1001  1101,
4.313511100000000,,0b  0000  0011,
4.313619900000000,,0b  0000  0001,
4.313634900000000,,0b  0010  0001,
4.313649900000000,,0b  0111  0100,
4.313719100000000,,0b  1000  0010,
4.313734000000000,,0b  0010  0011,
4.313749000000000,,0b  0111  0100,
4.413549000000000,,0b  0000  0000,
4.413564000000000,,0b  1001  1101,
4.413579000000000,,0b  0000  0011,
4.413688700000000,,0b  0000  0001,
4.413703700000000,,0b  0010  0010,
4.413718700000000,,0b  0111  0100,
4.413789200000000,,0b  0000  0010,
4.413804200000000,,0b  0010  0100,
4.413819200000000,,0b  0111  0100,
4.513619600000000,,0b  0000  0000,
4.513634600000000,,0b  1001  1101,
4.513649600000000,,0b  0000  0011,
4.513759800000000,,0b  0000  0001,
4.513774800000000,,0b  0010  0010,
4.513789900000000,,0b  0111  0100,
4.513858600000000,,0b  0000  0010,
4.513873600000000,,0b  0010  0100,
4.513888600000000,,0b  0111  0100,
4.613690500000000,,0b  1000  0000,
4.613705500000000,,0b  1010  0000,
4.613720500000000,,0b  0000  0011,
4.613829600000000,,0b  1000  0001,
4.613844600000000,,0b  0010  0011,
4.613859700000000,,0b  0111  0100,
4.613928100000000,,0b  1000  0010,
4.613943000000000,,0b  0010  0110,
4.613958000000000,,0b  0111  0100,
4.713757100000000,,0b  1000  0000,
4.713772000000000,,0b  1010  0000,
4.713787000000000,,0b  0000  0011,
4.713897000000000,,0b  1000  0001,
4.713912100000000,,0b  0010  0011,
4.713927100000000,,0b  0111  0100,
4.713995500000000,,0b  1000  0010,
4.714010500000000,,0b  0010  0110,
4.714025500000000,,0b  0111  0100,
4.813828600000000,,0b  1000  0000,
4.813843600000000,,0b  1010  0000,
4.813858600000000,,0b  0000  0011,
4.813967200000000,,0b  1000  0001,
4.813982200000000,,0b  0010  0101,
4.813997200000000,,0b  0111  0100,
4.814066600000000,,0b  0000  0010,
4.814081600000000,,0b  0010  0111,
4.814096600000000,,0b  0111  0100,
4.913896500000000,,0b  0000  0000,
4.913911500000000,,0b  1001  1101,
4.913926500000000,,0b  0000  0011,
4.914037600000000,,0b  1000  0001,
4.914052600000000,,0b  0010  0101,
4.914067700000000,,0b  0111  0100,
4.914136400000000,,0b  1000  0010,
4.914151400000000,,0b  0010  1001,
4.914166400000000,,0b  0111  0100,
5.013968400000000,,0b  0000  0000,
5.013983400000000,,0b  1001  1101,
5.013998400000000,,0b  0000  0011,
5.014107700000000,,0b  1000  0001,
5.014122800000000,,0b  0010  0110,
5.014137800000000,,0b  0111  0100,
5.014207200000000,,0b  1000  0010,
5.014222200000000,,0b  0010  1001,
5.014237100000000,,0b  0111  0100,
5.114039900000000,,0b  1000  0000,
5.114054900000000,,0b  1010  0000,
5.114069900000000,,0b  0000  0011,
5.114180200000000,,0b  1000  0001,
5.114195200000000,,0b  0010  0110,
5.114210300000000,,0b  0111  0100,
5.114280100000000,,0b  1000  0010,
5.114295100000000,,0b  0010  1010,
5.114310000000000,,0b  0111  0100,
5.214112100000000,,0b  0000  0000,
5.214127100000000,,0b  1001  1101,
5.214142100000000,,0b  0000  0011,
5.214251600000000,,0b  0000  0001,
5.214266700000000,,0b  0010  0111,
5.214281700000000,,0b  0111  0100,
5.214350900000000,,0b  1000  0010,
5.214365900000000,,0b  0010  1010,
5.214380900000000,,0b  0111  0100,
5.314182300000000,,0b  0000  0000,
5.314197300000000,,0b  1001  1101,
5.314212300000000,,0b  0000  0011,
5.314321100000000,,0b  0000  0001,
5.314336100000000,,0b  0010  0111,
5.314351200000000,,0b  0111  0100,
5.314420800000000,,0b  1000  0010,
5.314435700000000,,0b  0010  1010,
5.314450700000000,,0b  0111  0100,
5.414248900000000,,0b  1000  0000,
5.414263900000000,,0b  1010  0000,
5.414278900000000,,0b  0000  0011,
5.414388900000000,,0b  0000  0001,
5.414403900000000,,0b  0010  0111,
5.414419000000000,,0b  0111  0100,
5.414487300000000,,0b  0000  0010,
5.414502300000000,,0b  0010  1011,
5.414517300000000,,0b  0111  0100,
5.514317800000000,,0b  0000  0000,
5.514332800000000,,0b  1001  1101,
5.514347700000000,,0b  0000  0011,
5.514457000000000,,0b  0000  0001,
5.514472000000000,,0b  0010  0111,
5.514487100000000,,0b  0111  0100,
5.514555800000000,,0b  0000  0010,
5.514570800000000,,0b  0010  1011,
5.514585800000000,,0b  0111  0100,
5.614387000000000,,0b  0000  0000,
5.614402000000000,,0b  1001  1101,
5.614417000000000,,0b  0000  0011,
5.614527800000000,,0b  1000  0001,
5.614542800000000,,0b  0010  1001,
5.614557800000000,,0b  0111  0100,
5.614625600000000,,0b  0000  0010,
5.614640600000000,,0b  0010  1011,
5.614655600000000,,0b  0111  0100,
5.714453900000000,,0b  1000  0000,
5.714468900000000,,0b  1010  0000,
5.714483800000000,,0b  0000  0011,
5.714594200000000,,0b  0000  0001,
5.714609300000000,,0b  0010  0111,
5.714624300000000,,0b  0111  0100,
5.714694500000000,,0b  0000  0010,
5.714709500000000,,0b  0010  1011,
5.714724500000000,,0b  0111  0100,
5.814521100000000,,0b  0000  0000,
5.814536100000000,,0b  1001  1101,
5.814551100000000,,0b  0000  0011,
5.814661300000000,,0b  0000  0001,
5.814676400000000,,0b  0010  0111,
5.814691400000000,,0b  0111  0100,
5.814760300000000,,0b  0000  0010,
5.814775300000000,,0b  0010  1011,
5.814790300000000,,0b  0111  0100,
5.914591300000000,,0b  1000  0000,
5.914606300000000,,0b  1010  0000,
5.914621300000000,,0b  0000  0011,
5.914730800000000,,0b  1000  0001,
5.914745800000000,,0b  0010  1001,
5.914760800000000,,0b  0111  0100,
5.914829800000000,,0b  0000  0010,
5.914844800000000,,0b  0010  1011,
5.914859800000000,,0b  0111  0100,
6.014656800000000,,0b  0000  0000,
6.014671800000000,,0b  1001  1101,
6.014686800000000,,0b  0000  0011,
6.014796200000000,,0b  1000  0001,
6.014811200000000,,0b  0010  1001,
6.014826300000000,,0b  0111  0100,
6.014896300000000,,0b  0000  0010,
6.014911300000000,,0b  0010  1011,
6.014926300000000,,0b  0111  0100,
6.114725700000000,,0b  0000  0000,
6.114740700000000,,0b  1001  1101,
6.114755700000000,,0b  0000  0011,
6.114865000000000,,0b  1000  0001,
6.114880000000000,,0b  0010  1001,
6.114895100000000,,0b  0111  0100,
6.114963800000000,,0b  0000  0010,
6.114978800000000,,0b  0010  1101,
6.114993800000000,,0b  0111  0100,
6.214794200000000,,0b  0000  0000,
6.214809200000000,,0b  1001  1101,
6.214824200000000,,0b  0000  0011,
6.214934800000000,,0b  1000  0001,
6.214949800000000,,0b  0010  1001,
6.214964800000000,,0b  0111  0100,
6.215033000000000,,0b  0000  0010,
6.215048000000000,,0b  0010  1011,
6.215063000000000,,0b  0111  0100,
6.314871100000000,,0b  0000  0000,
6.314886100000000,,0b  1001  1101,
6.314901100000000,,0b  0000  0011,
