Time [s],Packet ID,MOSI,MISO
0.061828500000000,,0b  0000  0000,
0.061843500000000,,0b  1001  0111,
0.061858500000000,,0b  0000  0011,
0.061968600000000,,0b  1000  0001,
0.061983600000000,,0b  0011  1101,
0.061998600000000,,0b  0111  0100,
0.062068000000000,,0b  0000  0010,
0.062083000000000,,0b  0011  1100,
0.062098000000000,,0b  0111  0100,
0.161895700000000,,0b  0000  0000,
0.161910700000000,,0b  1001  0111,
0.161925700000000,,0b  0000  0011,
0.162037000000000,,0b  1000  0001,
0.162052000000000,,0b  0011  1110,
0.162067000000000,,0b  0111  0100,
0.162142300000000,,0b  0000  0010,
0.162157300000000,,0b  0011  1100,
0.162172300000000,,0b  0111  0100,
0.261967800000000,,0b  0000  0000,
0.261982800000000,,0b  1001  0111,
0.261997800000000,,0b  0000  0011,
0.262106400000000,,0b  1000  0001,
0.262121400000000,,0b  0011  1110,
0.262136400000000,,0b  0111  0100,
0.262205600000000,,0b  1000  0010,
0.262220500000000,,0b  0011  1110,
0.262235500000000,,0b  0111  0100,
0.362042300000000,,0b  0000  0000,
0.362057300000000,,0b  1001  0111,
0.362072300000000,,0b  0000  0011,
0.362181400000000,,0b  1000  0001,
0.362196500000000,,0b  0011  1110,
0.362211500000000,,0b  0111  0100,
0.362281200000000,,0b  1000  0010,
0.362296100000000,,0b  0011  1110,
0.362311100000000,,0b  0111  0100,
0.462110400000000,,0b  0000  0000,
0.462125400000000,,0b  1001  0111,
0.462140400000000,,0b  0000  0011,
0.462250200000000,,0b  1000  0001,
0.462265200000000,,0b  0100  0000,
0.462280200000000,,0b  0111  0100,
0.462349100000000,,0b  0000  0010,
0.462364100000000,,0b  0011  1111,
0.462379100000000,,0b  0111  0100,
0.562179900000000,,0b  0000  0000,
0.562194900000000,,0b  1001  0111,
0.562209900000000,,0b  0000  0011,
0.562318900000000,,0b  1000  0001,
0.562333900000000,,0b  0100  0000,
0.562349000000000,,0b  0111  0100,
0.562428000000000,,0b  0000  0010,
0.562443000000000,,0b  0011  1111,
0.562458000000000,,0b  0111  0100,
0.662249700000000,,0b  0000  0000,
0.662264700000000,,0b  1001  0111,
0.662279700000000,,0b  0000  0011,
0.662389600000000,,0b  0000  0001,
0.662404700000000,,0b  0100  0001,
0.662419700000000,,0b  0111  0100,
0.662488700000000,,0b  1000  0010,
0.662503700000000,,0b  0100  0000,
0.662518600000000,,0b  0111  0100,
0.762318200000000,,0b  0000  0000,
0.762333200000000,,0b  1001  0111,
0.762348200000000,,0b  0000  0011,
0.762458100000000,,0b  0000  0001,
0.762473100000000,,0b  0100  0010,
0.762488100000000,,0b  0111  0100,
0.762559600000000,,0b  0000  0010,
0.762574600000000,,0b  0100  0001,
0.762589600000000,,0b  0111  0100,
0.862389700000000,,0b  0000  0000,
0.862404700000000,,0b  1001  0111,
0.862419700000000,,0b  0000  0011,
0.862528500000000,,0b  0000  0001,
0.862543500000000,,0b  0100  0010,
0.862558500000000,,0b  0111  0100,
0.862627600000000,,0b  0000  0010,
0.862642600000000,,0b  0100  0001,
0.862657600000000,,0b  0111  0100,
0.962460200000000,,0b  0000  0000,
0.962475200000000,,0b  1001  0111,
0.962490100000000,,0b  0000  0011,
0.962599200000000,,0b  0000  0001,
0.962614200000000,,0b  0100  0100,
0.962629300000000,,0b  0111  0100,
0.962698200000000,,0b  1000  0010,
0.962713200000000,,0b  0100  0011,
0.962728200000000,,0b  0111  0100,
1.062524300000000,,0b  0000  0000,
1.062539300000000,,0b  1001  0111,
1.062554300000000,,0b  0000  0011,
1.062663300000000,,0b  0000  0001,
1.062678300000000,,0b  0100  0100,
1.062693400000000,,0b  0111  0100,
1.062763800000000,,0b  1000  0010,
1.062778800000000,,0b  0100  0011,
1.062793800000000,,0b  0111  0100,
1.162593800000000,,0b  0000  0000,
1.162608800000000,,0b  1001  0111,
1.162623800000000,,0b  0000  0011,
1.162734700000000,,0b  1000  0001,
1.162749700000000,,0b  0100  0101,
1.162764800000000,,0b  0111  0100,
1.162837500000000,,0b  0000  0010,
1.162852500000000,,0b  0100  0100,
1.162867400000000,,0b  0111  0100,
1.262663300000000,,0b  0000  0000,
1.262678300000000,,0b  1001  0111,
1.262693300000000,,0b  0000  0011,
1.262802100000000,,0b  0000  0001,
1.262817200000000,,0b  0100  0111,
1.262832200000000,,0b  0111  0100,
1.262902400000000,,0b  0000  0010,
1.262917400000000,,0b  0100  0100,
1.262932400000000,,0b  0111  0100,
1.362730200000000,,0b  0000  0000,
1.362745200000000,,0b  1001  0111,
1.362760100000000,,0b  0000  0011,
1.362869900000000,,0b  0000  0001,
1.362884900000000,,0b  0100  0111,
1.362899900000000,,0b  0111  0100,
1.362968400000000,,0b  1000  0010,
1.362983400000000,,0b  0100  0110,
1.362998400000000,,0b  0111  0100,
1.462804700000000,,0b  0000  0000,
1.462819700000000,,0b  1001  0111,
1.462834600000000,,0b  0000  0011,
1.462943300000000,,0b  0000  0001,
1.462958300000000,,0b  0100  1000,
1.462973400000000,,0b  0111  0100,
1.463043000000000,,0b  1000  0010,
1.463058000000000,,0b  0100  0110,
1.463073000000000,,0b  0111  0100,
1.562873200000000,,0b  0000  0000,
1.562888200000000,,0b  1001  0111,
1.562903100000000,,0b  0000  0011,
1.563014400000000,,0b  0000  0001,
1.563029400000000,,0b  0100  1000,
1.563044500000000,,0b  0111  0100,
1.563115700000000,,0b  1000  0010,
1.563130700000000,,0b  0100  0110,
1.563145700000000,,0b  0111  0100,
1.662945000000000,,0b  0000  0000,
1.662960000000000,,0b  1001  0111,
1.662975000000000,,0b  0000  0011,
1.663083900000000,,0b  0000  0001,
1.663098900000000,,0b  0100  1000,
1.663113900000000,,0b  0111  0100,
1.663183700000000,,0b  0000  0010,
1.663198700000000,,0b  0100  0111,
1.663213600000000,,0b  0111  0100,
1.763008500000000,,0b  0000  0000,
1.763023500000000,,0b  1001  0111,
1.763038500000000,,0b  0000  0011,
1.763148300000000,,0b  0000  0001,
1.763163300000000,,0b  0100  1000,
1.763178300000000,,0b  0111  0100,
1.763251700000000,,0b  1000  0010,
1.763266600000000,,0b  0100  0110,
1.763281600000000,,0b  0111  0100,
1.863078700000000,,0b  0000  0000,
1.863093700000000,,0b  1001  0111,
1.863108700000000,,0b  0000  0011,
1.863218700000000,,0b  0000  0001,
1.863233700000000,,0b  0100  0111,
1.863248800000000,,0b  0111  0100,
1.863319000000000,,0b  0000  0010,
1.863334000000000,,0b  0100  0111,
1.863349000000000,,0b  0111  0100,
1.963147900000000,,0b  0000  0000,
1.963162900000000,,0b  1001  0111,
1.963177900000000,,0b  0000  0011,
1.963285800000000,,0b  0000  0001,
1.963300800000000,,0b  0100  0111,
1.963315900000000,,0b  0111  0100,
1.963390300000000,,0b  1000  0010,
1.963405300000000,,0b  0100  0110,
1.963420300000000,,0b  0111  0100,
2.063213800000000,,0b  0000  0000,
2.063228700000000,,0b  1001  0111,
2.063243700000000,,0b  0000  0011,
2.063355300000000,,0b  0000  0001,
2.063370300000000,,0b  0100  0111,
2.063385300000000,,0b  0111  0100,
2.063456600000000,,0b  1000  0010,
2.063471600000000,,0b  0100  0110,
2.063486600000000,,0b  0111  0100,
2.163284900000000,,0b  0000  0000,
2.163299900000000,,0b  1001  0111,
2.163314900000000,,0b  0000  0011,
2.163424000000000,,0b  0000  0001,
2.163439100000000,,0b  0100  0111,
2.163454100000000,,0b  0111  0100,
2.163524000000000,,0b  0000  0010,
2.163538900000000,,0b  0100  0100,
2.163553900000000,,0b  0111  0100,
2.263355100000000,,0b  0000  0000,
2.263370100000000,,0b  1001  0111,
2.263385100000000,,0b  0000  0011,
2.263495500000000,,0b  1000  0001,
2.263510500000000,,0b  0100  0101,
2.263525600000000,,0b  0111  0100,
2.263594000000000,,0b  0000  0010,
2.263608900000000,,0b  0100  0100,
2.263623900000000,,0b  0111  0100,
2.363422300000000,,0b  0000  0000,
2.363437300000000,,0b  1001  0111,
2.363452300000000,,0b  0000  0011,
2.363563300000000,,0b  1000  0001,
2.363578300000000,,0b  0100  0101,
2.363593300000000,,0b  0111  0100,
2.363666300000000,,0b  0000  0010,
2.363681300000000,,0b  0100  0100,
2.363696300000000,,0b  0111  0100,
2.463492900000000,,0b  0000  0000,
2.463507900000000,,0b  1001  0111,
2.463522800000000,,0b  0000  0011,
2.463633700000000,,0b  1000  0001,
2.463648800000000,,0b  0100  0101,
2.463663800000000,,0b  0111  0100,
2.463732000000000,,0b  0000  0010,
2.463746900000000,,0b  0100  0100,
2.463761900000000,,0b  0111  0100,
2.563564100000000,,0b  1000  0000,
2.563579100000000,,0b  1001  0011,
2.563594000000000,,0b  0000  0011,
2.563703900000000,,0b  1000  0001,
2.563718900000000,,0b  0100  0101,
2.563733900000000,,0b  0111  0100,
2.563804300000000,,0b  0000  0010,
2.563819300000000,,0b  0100  0100,
2.563834300000000,,0b  0111  0100,
2.663631300000000,,0b  0000  0000,
2.663646300000000,,0b  1001  0111,
2.663661300000000,,0b  0000  0011,
2.663771600000000,,0b  1000  0001,
2.663786700000000,,0b  0100  0101,
2.663801700000000,,0b  0111  0100,
2.663869600000000,,0b  1000  0010,
2.663884600000000,,0b  0100  0011,
2.663899600000000,,0b  0111  0100,
2.763702800000000,,0b  0000  0000,
2.763717800000000,,0b  1001  0111,
2.763732800000000,,0b  0000  0011,
2.763843400000000,,0b  0000  0001,
2.763858500000000,,0b  0100  0100,
2.763873500000000,,0b  0111  0100,
2.763941600000000,,0b  1000  0010,
2.763956600000000,,0b  0100  0011,
2.763971600000000,,0b  0111  0100,
2.863771400000000,,0b  0000  0000,
2.863786400000000,,0b  1001  0111,
2.863801300000000,,0b  0000  0011,
2.863910200000000,,0b  1000  0001,
2.863925300000000,,0b  0100  0000,
2.863940300000000,,0b  0111  0100,
2.864015000000000,,0b  1000  0010,
2.864030000000000,,0b  0100  0011,
2.864045000000000,,0b  0111  0100,
2.963840600000000,,0b  0000  0000,
2.963855600000000,,0b  1001  0111,
2.963870600000000,,0b  0000  0011,
2.963980000000000,,0b  1000  0001,
2.963995100000000,,0b  0011  1110,
2.964010100000000,,0b  0111  0100,
2.964088000000000,,0b  0000  0010,
2.964103000000000,,0b  0100  0001,
2.964118000000000,,0b  0111  0100,
3.063909100000000,,0b  0000  0000,
3.063924100000000,,0b  1001  0111,
3.063939100000000,,0b  0000  0011,
3.064050200000000,,0b  1000  0001,
3.064065200000000,,0b  0011  1110,
3.064080200000000,,0b  0111  0100,
3.064148400000000,,0b  0000  0010,
3.064163400000000,,0b  0100  0001,
3.064178400000000,,0b  0111  0100,
3.163975400000000,,0b  0000  0000,
3.163990300000000,,0b  1001  0111,
3.164005300000000,,0b  0000  0011,
3.164114600000000,,0b  0000  0001,
3.164129700000000,,0b  0100  0001,
3.164144700000000,,0b  0111  0100,
3.164214400000000,,0b  1000  0010,
3.164229400000000,,0b  0100  0000,
3.164244400000000,,0b  0111  0100,
3.264045600000000,,0b  0000  0000,
3.264060600000000,,0b  1001  0111,
3.264075600000000,,0b  0000  0011,
3.264185100000000,,0b  0000  0001,
3.264200200000000,,0b  0100  0001,
3.264215200000000,,0b  0111  0100,
3.264285400000000,,0b  1000  0010,
3.264300400000000,,0b  0100  0000,
3.264315400000000,,0b  0111  0100,
3.364113500000000,,0b  0000  0000,
3.364128500000000,,0b  1001  0111,
3.364143400000000,,0b  0000  0011,
3.364252900000000,,0b  0000  0001,
3.364268000000000,,0b  0100  0001,
3.364283000000000,,0b  0111  0100,
3.364353500000000,,0b  1000  0010,
3.364368500000000,,0b  0100  0000,
3.364383400000000,,0b  0111  0100,
3.464183000000000,,0b  0000  0000,
3.464198000000000,,0b  1001  0111,
3.464213000000000,,0b  0000  0011,
3.464323100000000,,0b  0000  0001,
3.464338100000000,,0b  0011  1100,
3.464353200000000,,0b  0111  0100,
3.464421800000000,,0b  0000  0010,
3.464436800000000,,0b  0011  1111,
3.464451800000000,,0b  0111  0100,
3.564248900000000,,0b  0000  0000,
3.564263900000000,,0b  1001  0111,
3.564278900000000,,0b  0000  0011,
3.564389300000000,,0b  1000  0001,
3.564404300000000,,0b  0100  0000,
3.564419300000000,,0b  0111  0100,
3.564493900000000,,0b  0000  0010,
3.564508900000000,,0b  0011  1111,
3.564523900000000,,0b  0111  0100,
3.664315200000000,,0b  0000  0000,
3.664330200000000,,0b  1001  0111,
3.664345100000000,,0b  0000  0011,
3.664455700000000,,0b  1000  0001,
3.664470800000000,,0b  0100  0000,
3.664485800000000,,0b  0111  0100,
3.664556600000000,,0b  0000  0010,
3.664571600000000,,0b  0011  1111,
3.664586600000000,,0b  0111  0100,
3.764385400000000,,0b  0000  0000,
3.764400400000000,,0b  1001  0111,
3.764415400000000,,0b  0000  0011,
3.764523600000000,,0b  0000  0001,
3.764538600000000,,0b  0011  1010,
3.764553600000000,,0b  0111  0100,
3.764624700000000,,0b  1000  0010,
3.764639600000000,,0b  0011  1110,
3.764654600000000,,0b  0111  0100,
3.864454000000000,,0b  0000  0000,
3.864469000000000,,0b  1001  0111,
3.864484000000000,,0b  0000  0011,
3.864594400000000,,0b  0000  0001,
3.864609400000000,,0b  0011  1010,
3.864624500000000,,0b  0111  0100,
3.864702000000000,,0b  1000  0010,
3.864717000000000,,0b  0011  1110,
3.864732000000000,,0b  0111  0100,
3.964521900000000,,0b  0000  0000,
3.964536900000000,,0b  1001  0111,
3.964551900000000,,0b  0000  0011,
3.964662200000000,,0b  0000  0001,
3.964677200000000,,0b  0011  1010,
3.964692300000000,,0b  0111  0100,
3.964761400000000,,0b  1000  0010,
3.964776400000000,,0b  0011  1110,
3.964791400000000,,0b  0111  0100,
4.064589500000000,,0b  0000  0000,
4.064604500000000,,0b  1001  0111,
4.064619500000000,,0b  0000  0011,
4.064729400000000,,0b  0000  0001,
4.064744400000000,,0b  0011  1010,
4.064759400000000,,0b  0111  0100,
4.064833800000000,,0b  1000  0010,
4.064848800000000,,0b  0011  1110,
4.064863800000000,,0b  0111  0100,
4.164661100000000,,0b  0000  0000,
4.164676000000000,,0b  1001  0111,
4.164691000000000,,0b  0000  0011,
4.164800900000000,,0b  0000  0001,
4.164815900000000,,0b  0011  1010,
4.164831000000000,,0b  0111  0100,
4.164904200000000,,0b  1000  0010,
4.164919200000000,,0b  0011  1110,
4.164934200000000,,0b  0111  0100,
4.264731000000000,,0b  0000  0000,
4.264746000000000,,0b  1001  0111,
4.264761000000000,,0b  0000  0011,
4.264871400000000,,0b  0000  0001,
4.264886400000000,,0b  0011  1100,
4.264901500000000,,0b  0111  0100,
4.264970900000000,,0b  1000  0010,
4.264985900000000,,0b  0011  1110,
4.265000900000000,,0b  0111  0100,
4.364797200000000,,0b  0000  0000,
4.364812200000000,,0b  1001  0111,
4.364827200000000,,0b  0000  0011,
4.364935900000000,,0b  0000  0001,
4.364950900000000,,0b  0011  1100,
4.364966000000000,,0b  0111  0100,
4.365035300000000,,0b  0000  0010,
4.365050300000000,,0b  0011  1111,
4.365065300000000,,0b  0111  0100,
4.464862500000000,,0b  0000  0000,
4.464877500000000,,0b  1001  0111,
4.464892500000000,,0b  0000  0011,
4.465001700000000,,0b  0000  0001,
4.465016800000000,,0b  0011  1100,
4.465031800000000,,0b  0111  0100,
4.465104400000000,,0b  0000  0010,
4.465119400000000,,0b  0011  1111,
4.465134300000000,,0b  0111  0100,
4.564932800000000,,0b  0000  0000,
4.564947700000000,,0b  1001  0111,
4.564962700000000,,0b  0000  0011,
4.565072600000000,,0b  1000  0001,
4.565087600000000,,0b  0011  1101,
4.565102700000000,,0b  0111  0100,
4.565174100000000,,0b  1000  0010,
4.565189100000000,,0b  0100  0000,
4.565204100000000,,0b  0111  0100,
4.664999700000000,,0b  1000  0000,
4.665014700000000,,0b  1001  0011,
4.665029700000000,,0b  0000  0011,
4.665141100000000,,0b  1000  0001,
4.665156100000000,,0b  0011  1101,
4.665171200000000,,0b  0111  0100,
4.665239500000000,,0b  1000  0010,
4.665254500000000,,0b  0100  0000,
4.665269500000000,,0b  0111  0100,
4.765073600000000,,0b  1000  0000,
4.765088600000000,,0b  1001  0011,
4.765103600000000,,0b  0000  0011,
4.765213300000000,,0b  1000  0001,
4.765228300000000,,0b  0011  1110,
4.765243400000000,,0b  0111  0100,
4.765313300000000,,0b  0000  0010,
4.765328200000000,,0b  0100  0001,
4.765343200000000,,0b  0111  0100,
4.865141900000000,,0b  0000  0000,
4.865156900000000,,0b  1001  0111,
4.865171900000000,,0b  0000  0011,
4.865280800000000,,0b  1000  0001,
4.865295900000000,,0b  0011  1110,
4.865310900000000,,0b  0111  0100,
4.865382300000000,,0b  0000  0010,
4.865397300000000,,0b  0100  0001,
4.865412300000000,,0b  0111  0100,
4.965212200000000,,0b  0000  0000,
4.965227200000000,,0b  1001  0111,
4.965242100000000,,0b  0000  0011,
4.965352400000000,,0b  1000  0001,
4.965367400000000,,0b  0100  0000,
4.965382400000000,,0b  0111  0100,
4.965451800000000,,0b  0000  0010,
4.965466700000000,,0b  0100  0001,
4.965481700000000,,0b  0111  0100,
5.065276800000000,,0b  1000  0000,
5.065291800000000,,0b  1001  0011,
5.065306800000000,,0b  0000  0011,
5.065416500000000,,0b  1000  0001,
5.065431600000000,,0b  0100  0000,
5.065446600000000,,0b  0111  0100,
5.065515500000000,,0b  1000  0010,
5.065530500000000,,0b  0100  0011,
5.065545500000000,,0b  0111  0100,
5.165347100000000,,0b  1000  0000,
5.165362000000000,,0b  1001  0011,
5.165377000000000,,0b  0000  0011,
5.165487100000000,,0b  0000  0001,
5.165502100000000,,0b  0100  0001,
5.165517100000000,,0b  0111  0100,
5.165593900000000,,0b  0000  0010,
5.165608900000000,,0b  0100  0100,
5.165623900000000,,0b  0111  0100,
5.265418700000000,,0b  0000  0000,
5.265433700000000,,0b  1001  0111,
5.265448600000000,,0b  0000  0011,
5.265558600000000,,0b  0000  0001,
5.265573600000000,,0b  0100  0001,
5.265588700000000,,0b  0111  0100,
5.265663700000000,,0b  0000  0010,
5.265678700000000,,0b  0100  0100,
5.265693600000000,,0b  0111  0100,
5.365486300000000,,0b  1000  0000,
5.365501300000000,,0b  1001  0011,
5.365516300000000,,0b  0000  0011,
5.365626800000000,,0b  1000  0001,
5.365641800000000,,0b  0100  0011,
5.365656900000000,,0b  0111  0100,
5.365725100000000,,0b  1000  0010,
5.365740100000000,,0b  0100  0110,
5.365755100000000,,0b  0111  0100,
5.465555900000000,,0b  0000  0000,
5.465570900000000,,0b  1001  0111,
5.465585900000000,,0b  0000  0011,
5.465695700000000,,0b  1000  0001,
5.465710700000000,,0b  0100  0011,
5.465725700000000,,0b  0111  0100,
5.465794500000000,,0b  1000  0010,
5.465809500000000,,0b  0100  0110,
5.465824500000000,,0b  0111  0100,
5.565626500000000,,0b  1000  0000,
5.565641500000000,,0b  1001  0011,
5.565656500000000,,0b  0000  0011,
5.565766900000000,,0b  0000  0001,
5.565781900000000,,0b  0100  0100,
5.565796900000000,,0b  0111  0100,
5.565874300000000,,0b  1000  0010,
5.565889300000000,,0b  0100  0110,
5.565904300000000,,0b  0111  0100,
5.665694500000000,,0b  1000  0000,
5.665709500000000,,0b  1001  0011,
5.665724500000000,,0b  0000  0011,
5.665833800000000,,0b  0000  0001,
5.665848800000000,,0b  0100  0100,
5.665863800000000,,0b  0111  0100,
5.665933100000000,,0b  0000  0010,
5.665948000000000,,0b  0100  0111,
5.665963000000000,,0b  0111  0100,
5.765766100000000,,0b  1000  0000,
5.765781100000000,,0b  1001  0011,
5.765796100000000,,0b  0000  0011,
5.765905300000000,,0b  0000  0001,
5.765920300000000,,0b  0100  0100,
5.765935400000000,,0b  0111  0100,
5.766004500000000,,0b  0000  0010,
5.766019500000000,,0b  0100  0111,
5.766034500000000,,0b  0111  0100,
5.865836100000000,,0b  1000  0000,
5.865851100000000,,0b  1001  0011,
5.865866100000000,,0b  0000  0011,
5.865975200000000,,0b  0000  0001,
5.865990200000000,,0b  0100  0100,
5.866005300000000,,0b  0111  0100,
5.866074900000000,,0b  0000  0010,
5.866089900000000,,0b  0100  0111,
5.866104900000000,,0b  0111  0100,
5.965903400000000,,0b  1000  0000,
5.965918400000000,,0b  1001  0011,
5.965933400000000,,0b  0000  0011,
5.966042400000000,,0b  0000  0001,
5.966057400000000,,0b  0100  0100,
5.966072500000000,,0b  0111  0100,
5.966143000000000,,0b  0000  0010,
5.966158000000000,,0b  0100  0111,
5.966173000000000,,0b  0111  0100,
6.065975700000000,,0b  0000  0000,
6.065990700000000,,0b  1001  0111,
6.066005700000000,,0b  0000  0011,
6.066115000000000,,0b  0000  0001,
6.066130000000000,,0b  0100  0100,
6.066145000000000,,0b  0111  0100,
6.066213800000000,,0b  0000  0010,
6.066228800000000,,0b  0100  0111,
6.066243800000000,,0b  0111  0100,
6.166042000000000,,0b  0000  0000,
6.166057000000000,,0b  1001  0111,
6.166072000000000,,0b  0000  0011,
6.166181500000000,,0b  1000  0001,
6.166196500000000,,0b  0100  0011,
6.166211600000000,,0b  0111  0100,
6.166284900000000,,0b  1000  0010,
6.166299900000000,,0b  0100  0110,
6.166314900000000,,0b  0111  0100,
6.266112700000000,,0b  0000  0000,
6.266127600000000,,0b  1001  0111,
6.266142600000000,,0b  0000  0011,
6.266253100000000,,0b  1000  0001,
6.266268100000000,,0b  0100  0011,
6.266283100000000,,0b  0111  0100,
6.266354000000000,,0b  0000  0010,
6.266369000000000,,0b  0100  0100,
6.266384000000000,,0b  0111  0100,
6.366181300000000,,0b  1000  0000,
6.366196300000000,,0b  1001  0011,
6.366211300000000,,0b  0000  0011,
