Time [s],Packet ID,MOSI,MISO
0.002775800000000,,0b  0000  0000,
0.002790800000000,,0b  1001  0100,
0.002805800000000,,0b  0000  0011,
0.002915200000000,,0b  0000  0001,
0.002930200000000,,0b  0100  0100,
0.002945300000000,,0b  0111  0100,
0.003016500000000,,0b  0000  0010,
0.003031500000000,,0b  0100  1000,
0.003046500000000,,0b  0111  0100,
0.102844900000000,,0b  0000  0000,
0.102859900000000,,0b  1001  0100,
0.102874900000000,,0b  0000  0011,
0.102984200000000,,0b  1000  0001,
0.102999300000000,,0b  0100  0101,
0.103014300000000,,0b  0111  0100,
0.103085300000000,,0b  1000  0010,
0.103100400000000,,0b  0100  1001,
0.103115400000000,,0b  0111  0100,
0.202911300000000,,0b  0000  0000,
0.202926300000000,,0b  1001  0100,
0.202941300000000,,0b  0000  0011,
0.203051900000000,,0b  1000  0001,
0.203067000000000,,0b  0100  0101,
0.203082000000000,,0b  0111  0100,
0.203151200000000,,0b  1000  0010,
0.203166200000000,,0b  0100  1001,
0.203181200000000,,0b  0111  0100,
0.302979400000000,,0b  0000  0000,
0.302994400000000,,0b  1001  0100,
0.303009400000000,,0b  0000  0011,
0.303119700000000,,0b  1000  0001,
0.303134700000000,,0b  0100  0101,
0.303149700000000,,0b  0111  0100,
0.303219000000000,,0b  1000  0010,
0.303234000000000,,0b  0100  1001,
0.303249100000000,,0b  0111  0100,
0.403049900000000,,0b  0000  0000,
0.403064900000000,,0b  1001  0100,
0.403079900000000,,0b  0000  0011,
0.403188000000000,,0b  1000  0001,
0.403203100000000,,0b  0100  0110,
0.403218100000000,,0b  0111  0100,
0.403288200000000,,0b  0000  0010,
0.403303200000000,,0b  0100  1011,
0.403318200000000,,0b  0111  0100,
0.503115000000000,,0b  0000  0000,
0.503130000000000,,0b  1001  0100,
0.503145000000000,,0b  0000  0011,
0.503254700000000,,0b  1000  0001,
0.503269800000000,,0b  0100  0110,
0.503284800000000,,0b  0111  0100,
0.503356700000000,,0b  0000  0010,
0.503371700000000,,0b  0100  1011,
0.503386800000000,,0b  0111  0100,
0.603182400000000,,0b  0000  0000,
0.603197400000000,,0b  1001  0100,
0.603212400000000,,0b  0000  0011,
0.603322800000000,,0b  0000  0001,
0.603337800000000,,0b  0100  1000,
0.603352900000000,,0b  0111  0100,
0.603423500000000,,0b  1000  0010,
0.603438600000000,,0b  0100  1100,
0.603453600000000,,0b  0111  0100,
0.703251200000000,,0b  0000  0000,
0.703266200000000,,0b  1001  0100,
0.703281200000000,,0b  0000  0011,
0.703390200000000,,0b  0000  0001,
0.703405200000000,,0b  0100  1000,
0.703420300000000,,0b  0111  0100,
0.703489700000000,,0b  1000  0010,
0.703504800000000,,0b  0100  1100,
0.703519800000000,,0b  0111  0100,
0.803317000000000,,0b  0000  0000,
0.803332000000000,,0b  1001  0100,
0.803347000000000,,0b  0000  0011,
0.803456900000000,,0b  1000  0001,
0.803471900000000,,0b  0100  1001,
0.803487000000000,,0b  0111  0100,
0.803555900000000,,0b  0000  0010,
0.803570900000000,,0b  0100  1101,
0.803586000000000,,0b  0111  0100,
0.903384100000000,,0b  0000  0000,
0.903399100000000,,0b  1001  0100,
0.903414100000000,,0b  0000  0011,
0.903524600000000,,0b  0000  0001,
0.903539700000000,,0b  0100  1011,
0.903554700000000,,0b  0111  0100,
0.903624400000000,,0b  1000  0010,
0.903639500000000,,0b  0100  1111,
0.903654500000000,,0b  0111  0100,
1.003452500000000,,0b  0000  0000,
1.003467500000000,,0b  1001  0100,
1.003482500000000,,0b  0000  0011,
1.003593700000000,,0b  1000  0001,
1.003608700000000,,0b  0100  1100,
1.003623800000000,,0b  0111  0100,
1.003693300000000,,0b  0000  0010,
1.003708300000000,,0b  0101  0000,
1.003723400000000,,0b  0111  0100,
1.103528300000000,,0b  0000  0000,
1.103543300000000,,0b  1001  0100,
1.103558300000000,,0b  0000  0011,
1.103669500000000,,0b  1000  0001,
1.103684500000000,,0b  0100  1100,
1.103699500000000,,0b  0111  0100,
1.103769200000000,,0b  0000  0010,
1.103784200000000,,0b  0101  0000,
1.103799200000000,,0b  0111  0100,
1.203595100000000,,0b  0000  0000,
1.203610100000000,,0b  1001  0100,
1.203625100000000,,0b  0000  0011,
1.203735900000000,,0b  0000  0001,
1.203750900000000,,0b  0100  1101,
1.203765900000000,,0b  0111  0100,
1.203835000000000,,0b  1000  0010,
1.203850100000000,,0b  0101  0010,
1.203865100000000,,0b  0111  0100,
1.303662600000000,,0b  0000  0000,
1.303677600000000,,0b  1001  0100,
1.303692500000000,,0b  0000  0011,
1.303802600000000,,0b  0000  0001,
1.303817600000000,,0b  0100  1101,
1.303832700000000,,0b  0111  0100,
1.303903600000000,,0b  0000  0010,
1.303918600000000,,0b  0101  0000,
1.303933600000000,,0b  0111  0100,
1.403731000000000,,0b  0000  0000,
1.403746000000000,,0b  1001  0100,
1.403761000000000,,0b  0000  0011,
1.403870700000000,,0b  0000  0001,
1.403885700000000,,0b  0100  1101,
1.403900700000000,,0b  0111  0100,
1.403972100000000,,0b  1000  0010,
1.403987100000000,,0b  0101  0010,
1.404002200000000,,0b  0111  0100,
1.503799200000000,,0b  0000  0000,
1.503814100000000,,0b  1001  0100,
1.503829100000000,,0b  0000  0011,
1.503940100000000,,0b  0000  0001,
1.503955100000000,,0b  0100  1101,
1.503970200000000,,0b  0111  0100,
1.504041300000000,,0b  1000  0010,
1.504056300000000,,0b  0101  0010,
1.504071400000000,,0b  0111  0100,
1.603866000000000,,0b  0000  0000,
1.603881000000000,,0b  1001  0100,
1.603895900000000,,0b  0000  0011,
1.604006500000000,,0b  0000  0001,
1.604021500000000,,0b  0100  1101,
1.604036600000000,,0b  0111  0100,
1.604105800000000,,0b  1000  0010,
1.604120900000000,,0b  0101  0010,
1.604135900000000,,0b  0111  0100,
1.703935400000000,,0b  0000  0000,
1.703950400000000,,0b  1001  0100,
1.703965400000000,,0b  0000  0011,
1.704075300000000,,0b  0000  0001,
1.704090300000000,,0b  0100  1101,
1.704105300000000,,0b  0111  0100,
1.704175100000000,,0b  1000  0010,
1.704190100000000,,0b  0101  0010,
1.704205100000000,,0b  0111  0100,
1.804002900000000,,0b  0000  0000,
1.804017900000000,,0b  1001  0100,
1.804032900000000,,0b  0000  0011,
1.804143300000000,,0b  0000  0001,
1.804158400000000,,0b  0100  1101,
1.804173400000000,,0b  0111  0100,
1.804243900000000,,0b  1000  0010,
1.804259000000000,,0b  0101  0010,
1.804274000000000,,0b  0111  0100,
1.904074700000000,,0b  0000  0000,
1.904089700000000,,0b  1001  0100,
1.904104700000000,,0b  0000  0011,
1.904213400000000,,0b  0000  0001,
1.904228500000000,,0b  0100  1101,
1.904243500000000,,0b  0111  0100,
1.904314100000000,,0b  1000  0010,
1.904329200000000,,0b  0101  0010,
1.904344200000000,,0b  0111  0100,
2.004142200000000,,0b  0000  0000,
2.004157200000000,,0b  1001  0100,
2.004172200000000,,0b  0000  0011,
2.004282200000000,,0b  0000  0001,
2.004297300000000,,0b  0100  1101,
2.004312300000000,,0b  0111  0100,
2.004382000000000,,0b  1000  0010,
2.004397100000000,,0b  0101  0010,
2.004412100000000,,0b  0111  0100,
2.104212300000000,,0b  0000  0000,
2.104227300000000,,0b  1001  0100,
2.104242300000000,,0b  0000  0011,
2.104352700000000,,0b  1000  0001,
2.104367700000000,,0b  0100  1100,
2.104382700000000,,0b  0111  0100,
2.104452900000000,,0b  0000  0010,
2.104467900000000,,0b  0101  0000,
2.104483000000000,,0b  0111  0100,
2.204278500000000,,0b  0000  0000,
2.204293500000000,,0b  1001  0100,
2.204308500000000,,0b  0000  0011,
2.204418700000000,,0b  0000  0001,
2.204433800000000,,0b  0100  1011,
2.204448800000000,,0b  0111  0100,
2.204519800000000,,0b  1000  0010,
2.204534800000000,,0b  0100  1111,
2.204549900000000,,0b  0111  0100,
2.304347300000000,,0b  0000  0000,
2.304362300000000,,0b  1001  0100,
2.304377300000000,,0b  0000  0011,
2.304487900000000,,0b  0000  0001,
2.304502900000000,,0b  0100  1011,
2.304517900000000,,0b  0111  0100,
2.304588700000000,,0b  1000  0010,
2.304603700000000,,0b  0100  1111,
2.304618700000000,,0b  0111  0100,
2.404416200000000,,0b  0000  0000,
2.404431100000000,,0b  1001  0100,
2.404446100000000,,0b  0000  0011,
2.404555600000000,,0b  1000  0001,
2.404570700000000,,0b  0100  1001,
2.404585700000000,,0b  0111  0100,
2.404656600000000,,0b  0000  0010,
2.404671600000000,,0b  0100  1101,
2.404686600000000,,0b  0111  0100,
2.504484000000000,,0b  0000  0000,
2.504499000000000,,0b  1001  0100,
2.504514000000000,,0b  0000  0011,
2.504623100000000,,0b  1000  0001,
2.504638100000000,,0b  0100  1001,
2.504653100000000,,0b  0111  0100,
2.504723100000000,,0b  1000  0010,
2.504738200000000,,0b  0100  1100,
2.504753200000000,,0b  0111  0100,
2.604549800000000,,0b  0000  0000,
2.604564800000000,,0b  1001  0100,
2.604579800000000,,0b  0000  0011,
2.604690200000000,,0b  0000  0001,
2.604705200000000,,0b  0100  1000,
2.604720300000000,,0b  0111  0100,
2.604790000000000,,0b  1000  0010,
2.604805000000000,,0b  0100  1100,
2.604820100000000,,0b  0111  0100,
2.704619300000000,,0b  0000  0000,
2.704634300000000,,0b  1001  0100,
2.704649300000000,,0b  0000  0011,
2.704759000000000,,0b  0000  0001,
2.704774000000000,,0b  0100  1000,
2.704789000000000,,0b  0111  0100,
2.704858900000000,,0b  1000  0010,
2.704873900000000,,0b  0100  1100,
2.704889000000000,,0b  0111  0100,
2.804689800000000,,0b  0000  0000,
2.804704800000000,,0b  1001  0100,
2.804719800000000,,0b  0000  0011,
2.804830400000000,,0b  1000  0001,
2.804845500000000,,0b  0100  0110,
2.804860500000000,,0b  0111  0100,
2.804930200000000,,0b  0000  0010,
2.804945200000000,,0b  0100  1011,
2.804960200000000,,0b  0111  0100,
2.904758000000000,,0b  0000  0000,
2.904773000000000,,0b  1001  0100,
2.904788000000000,,0b  0000  0011,
2.904897600000000,,0b  1000  0001,
2.904912600000000,,0b  0100  0110,
2.904927600000000,,0b  0111  0100,
2.904997000000000,,0b  0000  0010,
2.905012100000000,,0b  0100  1011,
2.905027100000000,,0b  0111  0100,
3.004826200000000,,0b  0000  0000,
3.004841100000000,,0b  1001  0100,
3.004856100000000,,0b  0000  0011,
3.004966000000000,,0b  1000  0001,
3.004981100000000,,0b  0100  0101,
3.004996100000000,,0b  0111  0100,
3.005066300000000,,0b  1000  0010,
3.005081300000000,,0b  0100  1001,
3.005096300000000,,0b  0111  0100,
3.104896300000000,,0b  0000  0000,
3.104911300000000,,0b  1001  0100,
3.104926300000000,,0b  0000  0011,
3.105036800000000,,0b  1000  0001,
3.105051900000000,,0b  0100  0101,
3.105066900000000,,0b  0111  0100,
3.105136200000000,,0b  0000  0010,
3.105151200000000,,0b  0100  1000,
3.105166200000000,,0b  0111  0100,
3.204963200000000,,0b  0000  0000,
3.204978200000000,,0b  1001  0100,
3.204993200000000,,0b  0000  0011,
3.205103300000000,,0b  0000  0001,
3.205118300000000,,0b  0100  0100,
3.205133400000000,,0b  0111  0100,
3.205202800000000,,0b  0000  0010,
3.205217800000000,,0b  0100  1000,
3.205232800000000,,0b  0111  0100,
3.305038000000000,,0b  0000  0000,
3.305053000000000,,0b  1001  0100,
3.305068000000000,,0b  0000  0011,
3.305178100000000,,0b  0000  0001,
3.305193100000000,,0b  0100  0010,
3.305208200000000,,0b  0111  0100,
3.305278000000000,,0b  0000  0010,
3.305293000000000,,0b  0100  1000,
3.305308100000000,,0b  0111  0100,
3.405106500000000,,0b  0000  0000,
3.405121500000000,,0b  1001  0100,
3.405136500000000,,0b  0000  0011,
3.405246600000000,,0b  0000  0001,
3.405261600000000,,0b  0100  0010,
3.405276600000000,,0b  0111  0100,
3.405346900000000,,0b  1000  0010,
3.405361900000000,,0b  0100  0110,
3.405377000000000,,0b  0111  0100,
3.505174100000000,,0b  0000  0000,
3.505189100000000,,0b  1001  0100,
3.505204100000000,,0b  0000  0011,
3.505314100000000,,0b  0000  0001,
3.505329100000000,,0b  0100  0100,
3.505344100000000,,0b  0111  0100,
3.505413200000000,,0b  1000  0010,
3.505428200000000,,0b  0100  0110,
3.505443200000000,,0b  0111  0100,
3.605241600000000,,0b  0000  0000,
3.605256600000000,,0b  1001  0100,
3.605271600000000,,0b  0000  0011,
3.605381900000000,,0b  0000  0001,
3.605396900000000,,0b  0100  0100,
3.605411900000000,,0b  0111  0100,
3.605482100000000,,0b  1000  0010,
3.605497100000000,,0b  0100  0110,
3.605512100000000,,0b  0111  0100,
3.705307500000000,,0b  0000  0000,
3.705322400000000,,0b  1001  0100,
3.705337400000000,,0b  0000  0011,
3.705447300000000,,0b  0000  0001,
3.705462400000000,,0b  0100  0100,
3.705477400000000,,0b  0111  0100,
3.705547300000000,,0b  0000  0010,
3.705562300000000,,0b  0100  1000,
3.705577400000000,,0b  0111  0100,
3.805378700000000,,0b  0000  0000,
3.805393600000000,,0b  1001  0100,
3.805408600000000,,0b  0000  0011,
3.805517800000000,,0b  0000  0001,
3.805532900000000,,0b  0100  0100,
3.805547900000000,,0b  0111  0100,
3.805618900000000,,0b  0000  0010,
3.805633900000000,,0b  0100  1000,
3.805649000000000,,0b  0111  0100,
3.905448500000000,,0b  0000  0000,
3.905463500000000,,0b  1001  0100,
3.905478500000000,,0b  0000  0011,
3.905588300000000,,0b  1000  0001,
3.905603400000000,,0b  0100  0101,
3.905618400000000,,0b  0111  0100,
3.905688500000000,,0b  0000  0010,
3.905703500000000,,0b  0100  1000,
3.905718600000000,,0b  0111  0100,
4.005513700000000,,0b  1000  0000,
4.005528700000000,,0b  1001  0011,
4.005543700000000,,0b  0000  0011,
4.005654800000000,,0b  1000  0001,
4.005669800000000,,0b  0100  0101,
4.005684900000000,,0b  0111  0100,
4.005753700000000,,0b  0000  0010,
4.005768800000000,,0b  0100  1000,
4.005783800000000,,0b  0111  0100,
4.105581600000000,,0b  0000  0000,
4.105596600000000,,0b  1001  0100,
4.105611600000000,,0b  0000  0011,
4.105721000000000,,0b  1000  0001,
4.105736000000000,,0b  0100  0110,
4.105751000000000,,0b  0111  0100,
4.105821000000000,,0b  1000  0010,
4.105836000000000,,0b  0100  1001,
4.105851100000000,,0b  0111  0100,
4.205647800000000,,0b  1000  0000,
4.205662800000000,,0b  1001  0011,
4.205677800000000,,0b  0000  0011,
4.205788100000000,,0b  1000  0001,
4.205803200000000,,0b  0100  0110,
4.205818200000000,,0b  0111  0100,
4.205888900000000,,0b  0000  0010,
4.205904000000000,,0b  0100  1011,
4.205919000000000,,0b  0111  0100,
4.305718400000000,,0b  0000  0000,
4.305733400000000,,0b  1001  0100,
4.305748300000000,,0b  0000  0011,
4.305858600000000,,0b  0000  0001,
4.305873700000000,,0b  0100  1000,
4.305888700000000,,0b  0111  0100,
4.305957900000000,,0b  0000  0010,
4.305972900000000,,0b  0100  1011,
4.305987900000000,,0b  0111  0100,
4.405783900000000,,0b  0000  0000,
4.405798900000000,,0b  1001  0100,
4.405813900000000,,0b  0000  0011,
4.405924500000000,,0b  0000  0001,
4.405939500000000,,0b  0100  1000,
4.405954500000000,,0b  0111  0100,
4.406024800000000,,0b  1000  0010,
4.406039800000000,,0b  0100  1100,
4.406054800000000,,0b  0111  0100,
4.505852100000000,,0b  1000  0000,
4.505867100000000,,0b  1001  0011,
4.505882100000000,,0b  0000  0011,
4.505992000000000,,0b  1000  0001,
4.506007000000000,,0b  0100  1001,
4.506022000000000,,0b  0111  0100,
4.506092400000000,,0b  0000  0010,
4.506107400000000,,0b  0100  1101,
4.506122400000000,,0b  0111  0100,
4.605918400000000,,0b  0000  0000,
4.605933300000000,,0b  1001  0100,
4.605948300000000,,0b  0000  0011,
4.606058800000000,,0b  1000  0001,
4.606073800000000,,0b  0100  1001,
4.606088900000000,,0b  0111  0100,
4.606158600000000,,0b  0000  0010,
4.606173700000000,,0b  0100  1101,
4.606188700000000,,0b  0111  0100,
4.705988900000000,,0b  0000  0000,
4.706003900000000,,0b  1001  0100,
4.706018900000000,,0b  0000  0011,
4.706128700000000,,0b  0000  0001,
4.706143700000000,,0b  0100  1011,
4.706158700000000,,0b  0111  0100,
4.706228600000000,,0b  0000  0010,
4.706243600000000,,0b  0100  1101,
4.706258600000000,,0b  0111  0100,
4.806054800000000,,0b  0000  0000,
4.806069800000000,,0b  1001  0100,
4.806084800000000,,0b  0000  0011,
4.806195800000000,,0b  0000  0001,
4.806210900000000,,0b  0100  1011,
4.806225900000000,,0b  0111  0100,
4.806294500000000,,0b  1000  0010,
4.806309500000000,,0b  0100  1111,
4.806324600000000,,0b  0111  0100,
4.906121700000000,,0b  0000  0000,
4.906136700000000,,0b  1001  0100,
4.906151700000000,,0b  0000  0011,
4.906262400000000,,0b  1000  0001,
4.906277400000000,,0b  0100  1100,
4.906292400000000,,0b  0111  0100,
4.906361800000000,,0b  1000  0010,
4.906376800000000,,0b  0100  1111,
4.906391800000000,,0b  0111  0100,
5.006189300000000,,0b  0000  0000,
5.006204300000000,,0b  1001  0100,
5.006219300000000,,0b  0000  0011,
5.006329200000000,,0b  1000  0001,
5.006344200000000,,0b  0100  1100,
5.006359300000000,,0b  0111  0100,
5.006429400000000,,0b  0000  0010,
5.006444400000000,,0b  0101  0000,
5.006459500000000,,0b  0111  0100,
5.106255900000000,,0b  0000  0000,
5.106270800000000,,0b  1001  0100,
5.106285800000000,,0b  0000  0011,
5.106397100000000,,0b  0000  0001,
5.106412100000000,,0b  0100  1101,
5.106427100000000,,0b  0111  0100,
5.106496300000000,,0b  0000  0010,
5.106511400000000,,0b  0101  0000,
5.106526400000000,,0b  0111  0100,
5.206327100000000,,0b  0000  0000,
5.206342100000000,,0b  1001  0100,
5.206357100000000,,0b  0000  0011,
5.206466900000000,,0b  0000  0001,
5.206482000000000,,0b  0100  1101,
5.206497000000000,,0b  0111  0100,
5.206568600000000,,0b  0000  0010,
5.206583600000000,,0b  0101  0000,
5.206598700000000,,0b  0111  0100,
5.306395300000000,,0b  1000  0000,
5.306410300000000,,0b  1001  0011,
5.306425300000000,,0b  0000  0011,
5.306536100000000,,0b  0000  0001,
5.306551200000000,,0b  0100  1101,
5.306566200000000,,0b  0111  0100,
5.306635200000000,,0b  1000  0010,
5.306650300000000,,0b  0101  0010,
5.306665300000000,,0b  0111  0100,
5.406463600000000,,0b  1000  0000,
5.406478600000000,,0b  1001  0110,
5.406493600000000,,0b  0000  0011,
5.406602700000000,,0b  0000  0001,
5.406617700000000,,0b  0100  1101,
5.406632700000000,,0b  0111  0100,
5.406702200000000,,0b  1000  0010,
5.406717200000000,,0b  0101  0010,
5.406732200000000,,0b  0111  0100,
5.506532800000000,,0b  1000  0000,
5.506547800000000,,0b  1001  0011,
5.506562800000000,,0b  0000  0011,
5.506673900000000,,0b  0000  0001,
5.506688900000000,,0b  0100  1101,
5.506703900000000,,0b  0111  0100,
5.506774100000000,,0b  1000  0010,
5.506789200000000,,0b  0101  0010,
5.506804200000000,,0b  0111  0100,
5.606608700000000,,0b  1000  0000,
5.606623700000000,,0b  1001  0011,
5.606638700000000,,0b  0000  0011,
5.606748400000000,,0b  0000  0001,
5.606763500000000,,0b  0100  1101,
5.606778500000000,,0b  0111  0100,
5.606848400000000,,0b  1000  0010,
5.606863500000000,,0b  0101  0010,
5.606878500000000,,0b  0111  0100,
5.706674000000000,,0b  1000  0000,
5.706689000000000,,0b  1001  0011,
5.706704000000000,,0b  0000  0011,
5.706814600000000,,0b  0000  0001,
5.706829700000000,,0b  0100  1101,
5.706844700000000,,0b  0111  0100,
5.706913700000000,,0b  0000  0010,
5.706928700000000,,0b  0101  0000,
5.706943800000000,,0b  0111  0100,
5.806740900000000,,0b  1000  0000,
5.806755900000000,,0b  1001  0011,
5.806770900000000,,0b  0000  0011,
5.806881200000000,,0b  1000  0001,
5.806896200000000,,0b  0100  1100,
5.806911300000000,,0b  0111  0100,
5.806981000000000,,0b  0000  0010,
5.806996000000000,,0b  0101  0000,
5.807011100000000,,0b  0111  0100,
5.906807500000000,,0b  1000  0000,
5.906822500000000,,0b  1001  0011,
5.906837500000000,,0b  0000  0011,
5.906947700000000,,0b  1000  0001,
5.906962800000000,,0b  0100  1100,
5.906977800000000,,0b  0111  0100,
5.907048000000000,,0b  0000  0010,
5.907063000000000,,0b  0101  0000,
5.907078000000000,,0b  0111  0100,
6.006877400000000,,0b  0000  0000,
6.006892400000000,,0b  1001  0100,
6.006907400000000,,0b  0000  0011,
6.007016600000000,,0b  1000  0001,
6.007031600000000,,0b  0100  1100,
6.007046700000000,,0b  0111  0100,
6.007116300000000,,0b  0000  0010,
6.007131300000000,,0b  0101  0000,
6.007146300000000,,0b  0111  0100,
6.106944000000000,,0b  1000  0000,
6.106959000000000,,0b  1001  0011,
6.106974000000000,,0b  0000  0011,
6.107084200000000,,0b  1000  0001,
6.107099200000000,,0b  0100  1100,
6.107114200000000,,0b  0111  0100,
6.107183600000000,,0b  0000  0010,
6.107198600000000,,0b  0101  0000,
6.107213600000000,,0b  0111  0100,
6.207012000000000,,0b  1000  0000,
6.207027000000000,,0b  1001  0011,
6.207042000000000,,0b  0000  0011,
6.207152100000000,,0b  1000  0001,
6.207167100000000,,0b  0100  1100,
6.207182100000000,,0b  0111  0100,
6.207253200000000,,0b  1000  0010,
6.207268200000000,,0b  0100  1111,
6.207283300000000,,0b  0111  0100,
6.307080600000000,,0b  1000  0000,
6.307095600000000,,0b  1001  0011,
6.307110600000000,,0b  0000  0011,
