Time [s],Packet ID,MOSI,MISO
0.007379900000000,,0b  0000  0000,
0.007394900000000,,0b  1010  0010,
0.007409900000000,,0b  0000  0011,
0.007519600000000,,0b  0000  0001,
0.007534700000000,,0b  0101  0110,
0.007549700000000,,0b  0111  0100,
0.007619800000000,,0b  0000  0010,
0.007634800000000,,0b  0101  1010,
0.007649900000000,,0b  0111  0100,
0.107446600000000,,0b  0000  0000,
0.107461600000000,,0b  1010  0010,
0.107476600000000,,0b  0000  0011,
0.107586400000000,,0b  0000  0001,
0.107601500000000,,0b  0101  0110,
0.107616500000000,,0b  0111  0100,
0.107686100000000,,0b  0000  0010,
0.107701100000000,,0b  0101  1010,
0.107716100000000,,0b  0111  0100,
0.207514700000000,,0b  0000  0000,
0.207529700000000,,0b  1010  0010,
0.207544700000000,,0b  0000  0011,
0.207654600000000,,0b  0000  0001,
0.207669600000000,,0b  0101  0101,
0.207684600000000,,0b  0111  0100,
0.207755000000000,,0b  1000  0010,
0.207770000000000,,0b  0101  1000,
0.207785100000000,,0b  0111  0100,
0.307582700000000,,0b  0000  0000,
0.307597700000000,,0b  1010  0001,
0.307612700000000,,0b  0000  0011,
0.307722700000000,,0b  0000  0001,
0.307737700000000,,0b  0101  0101,
0.307752800000000,,0b  0111  0100,
0.307822300000000,,0b  1000  0010,
0.307837300000000,,0b  0101  1000,
0.307852400000000,,0b  0111  0100,
0.407649500000000,,0b  0000  0000,
0.407664400000000,,0b  1010  0001,
0.407679400000000,,0b  0000  0011,
0.407789500000000,,0b  1000  0001,
0.407804500000000,,0b  0101  0100,
0.407819500000000,,0b  0111  0100,
0.407889900000000,,0b  1000  0010,
0.407904900000000,,0b  0101  1000,
0.407920000000000,,0b  0111  0100,
0.507720500000000,,0b  0000  0000,
0.507735500000000,,0b  1010  0001,
0.507750500000000,,0b  0000  0011,
0.507861300000000,,0b  1000  0001,
0.507876300000000,,0b  0101  0100,
0.507891300000000,,0b  0111  0100,
0.507961900000000,,0b  1000  0010,
0.507976900000000,,0b  0101  1000,
0.507991900000000,,0b  0111  0100,
0.607789900000000,,0b  0000  0000,
0.607804900000000,,0b  1010  0001,
0.607819900000000,,0b  0000  0011,
0.607930000000000,,0b  1000  0001,
0.607945100000000,,0b  0101  0100,
0.607960100000000,,0b  0111  0100,
0.608030200000000,,0b  1000  0010,
0.608045200000000,,0b  0101  0111,
0.608060200000000,,0b  0111  0100,
0.707857600000000,,0b  0000  0000,
0.707872600000000,,0b  1010  0010,
0.707887600000000,,0b  0000  0011,
0.707998500000000,,0b  1000  0001,
0.708013500000000,,0b  0101  0100,
0.708028600000000,,0b  0111  0100,
0.708097100000000,,0b  1000  0010,
0.708112100000000,,0b  0101  0111,
0.708127200000000,,0b  0111  0100,
0.807926700000000,,0b  0000  0000,
0.807941700000000,,0b  1010  0010,
0.807956700000000,,0b  0000  0011,
0.808065900000000,,0b  1000  0001,
0.808081000000000,,0b  0101  0100,
0.808096000000000,,0b  0111  0100,
0.808166400000000,,0b  1000  0010,
0.808181400000000,,0b  0101  0111,
0.808196400000000,,0b  0111  0100,
0.907994100000000,,0b  0000  0000,
0.908009000000000,,0b  1010  0010,
0.908024000000000,,0b  0000  0011,
0.908133700000000,,0b  1000  0001,
0.908148800000000,,0b  0101  0100,
0.908163800000000,,0b  0111  0100,
0.908234300000000,,0b  0000  0010,
0.908249400000000,,0b  0101  1001,
0.908264400000000,,0b  0111  0100,
1.008062500000000,,0b  0000  0000,
1.008077400000000,,0b  1010  0001,
1.008092400000000,,0b  0000  0011,
1.008201500000000,,0b  0000  0001,
1.008216500000000,,0b  0101  0101,
1.008231600000000,,0b  0111  0100,
1.008302900000000,,0b  0000  0010,
1.008318000000000,,0b  0101  1001,
1.008333000000000,,0b  0111  0100,
1.108128800000000,,0b  0000  0000,
1.108143800000000,,0b  1010  0001,
1.108158800000000,,0b  0000  0011,
1.108269600000000,,0b  0000  0001,
1.108284700000000,,0b  0101  0101,
1.108299700000000,,0b  0111  0100,
1.108369600000000,,0b  0000  0010,
1.108384600000000,,0b  0101  1010,
1.108399600000000,,0b  0111  0100,
1.208197600000000,,0b  0000  0000,
1.208212500000000,,0b  1010  0010,
1.208227500000000,,0b  0000  0011,
1.208337100000000,,0b  0000  0001,
1.208352100000000,,0b  0101  0110,
1.208367100000000,,0b  0111  0100,
1.208437500000000,,0b  0000  0010,
1.208452500000000,,0b  0101  1010,
1.208467600000000,,0b  0111  0100,
1.308265600000000,,0b  0000  0000,
1.308280600000000,,0b  1010  0001,
1.308295600000000,,0b  0000  0011,
1.308405800000000,,0b  0000  0001,
1.308420900000000,,0b  0101  0110,
1.308435900000000,,0b  0111  0100,
1.308505800000000,,0b  0000  0010,
1.308520800000000,,0b  0101  1010,
1.308535800000000,,0b  0111  0100,
1.408333300000000,,0b  0000  0000,
1.408348300000000,,0b  1010  0001,
1.408363300000000,,0b  0000  0011,
1.408473900000000,,0b  0000  0001,
1.408489000000000,,0b  0101  0110,
1.408504000000000,,0b  0111  0100,
1.408573700000000,,0b  0000  0010,
1.408588700000000,,0b  0101  1100,
1.408603800000000,,0b  0111  0100,
1.508402000000000,,0b  0000  0000,
1.508417000000000,,0b  1010  0010,
1.508432000000000,,0b  0000  0011,
1.508540700000000,,0b  1000  0001,
1.508555700000000,,0b  0101  1000,
1.508570800000000,,0b  0111  0100,
1.508640600000000,,0b  0000  0010,
1.508655700000000,,0b  0101  1100,
1.508670700000000,,0b  0111  0100,
1.608470700000000,,0b  0000  0000,
1.608485700000000,,0b  1010  0001,
1.608500700000000,,0b  0000  0011,
1.608609500000000,,0b  1000  0001,
1.608624500000000,,0b  0101  1000,
1.608639600000000,,0b  0111  0100,
1.608710200000000,,0b  0000  0010,
1.608725300000000,,0b  0101  1100,
1.608740300000000,,0b  0111  0100,
1.708538800000000,,0b  0000  0000,
1.708553800000000,,0b  1010  0010,
1.708568800000000,,0b  0000  0011,
1.708678600000000,,0b  1000  0001,
1.708693600000000,,0b  0101  1000,
1.708708700000000,,0b  0111  0100,
1.708778200000000,,0b  0000  0010,
1.708793200000000,,0b  0101  1100,
1.708808200000000,,0b  0111  0100,
1.808609800000000,,0b  0000  0000,
1.808624800000000,,0b  1010  0001,
1.808639800000000,,0b  0000  0011,
1.808750100000000,,0b  1000  0001,
1.808765100000000,,0b  0101  1000,
1.808780100000000,,0b  0111  0100,
1.808850100000000,,0b  0000  0010,
1.808865100000000,,0b  0101  1100,
1.808880200000000,,0b  0111  0100,
1.908676200000000,,0b  0000  0000,
1.908691200000000,,0b  1010  0010,
1.908706200000000,,0b  0000  0011,
1.908815200000000,,0b  1000  0001,
1.908830200000000,,0b  0101  1000,
1.908845200000000,,0b  0111  0100,
1.908915000000000,,0b  0000  0010,
1.908930100000000,,0b  0101  1100,
1.908945100000000,,0b  0111  0100,
2.008743300000000,,0b  0000  0000,
2.008758200000000,,0b  1010  0010,
2.008773200000000,,0b  0000  0011,
2.008882900000000,,0b  0000  0001,
2.008898000000000,,0b  0101  1001,
2.008913000000000,,0b  0111  0100,
2.008982300000000,,0b  1000  0010,
2.008997300000000,,0b  0101  1101,
2.009012400000000,,0b  0111  0100,
2.108810000000000,,0b  0000  0000,
2.108825000000000,,0b  1010  0001,
2.108839900000000,,0b  0000  0011,
2.108949700000000,,0b  0000  0001,
2.108964700000000,,0b  0101  1001,
2.108979800000000,,0b  0111  0100,
2.109050600000000,,0b  1000  0010,
2.109065600000000,,0b  0101  1101,
2.109080600000000,,0b  0111  0100,
2.208879300000000,,0b  0000  0000,
2.208894300000000,,0b  1010  0001,
2.208909300000000,,0b  0000  0011,
2.209019800000000,,0b  0000  0001,
2.209034800000000,,0b  0101  1001,
2.209049900000000,,0b  0111  0100,
2.209119100000000,,0b  1000  0010,
2.209134200000000,,0b  0101  1101,
2.209149200000000,,0b  0111  0100,
2.308954700000000,,0b  0000  0000,
2.308969700000000,,0b  1010  0010,
2.308984700000000,,0b  0000  0011,
2.309093900000000,,0b  0000  0001,
2.309109000000000,,0b  0101  1001,
2.309124000000000,,0b  0111  0100,
2.309194100000000,,0b  1000  0010,
2.309209100000000,,0b  0101  1110,
2.309224100000000,,0b  0111  0100,
2.409024400000000,,0b  0000  0000,
2.409039400000000,,0b  1010  0001,
2.409054400000000,,0b  0000  0011,
2.409164400000000,,0b  0000  0001,
2.409179400000000,,0b  0101  1010,
2.409194400000000,,0b  0111  0100,
2.409265000000000,,0b  1000  0010,
2.409280000000000,,0b  0101  1110,
2.409295100000000,,0b  0111  0100,
2.509095400000000,,0b  0000  0000,
2.509110400000000,,0b  1010  0001,
2.509125400000000,,0b  0000  0011,
2.509235800000000,,0b  0000  0001,
2.509250800000000,,0b  0101  1010,
2.509265900000000,,0b  0111  0100,
2.509335300000000,,0b  1000  0010,
2.509350300000000,,0b  0101  1110,
2.509365300000000,,0b  0111  0100,
2.609160500000000,,0b  0000  0000,
2.609175500000000,,0b  1010  0001,
2.609190500000000,,0b  0000  0011,
2.609300900000000,,0b  0000  0001,
2.609315900000000,,0b  0101  1010,
2.609331000000000,,0b  0111  0100,
2.609400200000000,,0b  1000  0010,
2.609415200000000,,0b  0101  1110,
2.609430200000000,,0b  0111  0100,
2.709231800000000,,0b  0000  0000,
2.709246800000000,,0b  1010  0001,
2.709261800000000,,0b  0000  0011,
2.709371700000000,,0b  0000  0001,
2.709386700000000,,0b  0101  1100,
2.709401700000000,,0b  0111  0100,
2.709471400000000,,0b  0000  0010,
2.709486500000000,,0b  0110  0000,
2.709501500000000,,0b  0111  0100,
2.809300200000000,,0b  0000  0000,
2.809315200000000,,0b  1010  0010,
2.809330200000000,,0b  0000  0011,
2.809440800000000,,0b  0000  0001,
2.809455800000000,,0b  0101  1010,
2.809470800000000,,0b  0111  0100,
2.809541700000000,,0b  1000  0010,
2.809556700000000,,0b  0101  1110,
2.809571700000000,,0b  0111  0100,
2.909369200000000,,0b  0000  0000,
2.909384200000000,,0b  1010  0001,
2.909399200000000,,0b  0000  0011,
2.909508500000000,,0b  0000  0001,
2.909523600000000,,0b  0101  1010,
2.909538600000000,,0b  0111  0100,
2.909609600000000,,0b  1000  0010,
2.909624600000000,,0b  0101  1110,
2.909639700000000,,0b  0111  0100,
3.009439600000000,,0b  0000  0000,
3.009454600000000,,0b  1010  0001,
3.009469600000000,,0b  0000  0011,
3.009580000000000,,0b  0000  0001,
3.009595000000000,,0b  0101  1001,
3.009610000000000,,0b  0111  0100,
3.009679800000000,,0b  1000  0010,
3.009694900000000,,0b  0101  1110,
3.009709900000000,,0b  0111  0100,
3.109511600000000,,0b  0000  0000,
3.109526600000000,,0b  1010  0001,
3.109541600000000,,0b  0000  0011,
3.109651700000000,,0b  0000  0001,
3.109666800000000,,0b  0101  1001,
3.109681800000000,,0b  0111  0100,
3.109750800000000,,0b  1000  0010,
3.109765800000000,,0b  0101  1101,
3.109780800000000,,0b  0111  0100,
3.209579700000000,,0b  0000  0000,
3.209594700000000,,0b  1010  0001,
3.209609700000000,,0b  0000  0011,
3.209719200000000,,0b  0000  0001,
3.209734200000000,,0b  0101  1001,
3.209749200000000,,0b  0111  0100,
3.209819700000000,,0b  1000  0010,
3.209834700000000,,0b  0101  1101,
3.209849700000000,,0b  0111  0100,
3.309651400000000,,0b  0000  0000,
3.309666400000000,,0b  1010  0001,
3.309681300000000,,0b  0000  0011,
3.309791600000000,,0b  0000  0001,
3.309806600000000,,0b  0101  1001,
3.309821700000000,,0b  0111  0100,
3.309891600000000,,0b  1000  0010,
3.309906600000000,,0b  0101  1101,
3.309921600000000,,0b  0111  0100,
3.409722100000000,,0b  0000  0000,
3.409737000000000,,0b  1010  0010,
3.409752000000000,,0b  0000  0011,
3.409862000000000,,0b  0000  0001,
3.409877100000000,,0b  0101  1001,
3.409892100000000,,0b  0111  0100,
3.409962500000000,,0b  1000  0010,
3.409977500000000,,0b  0101  1101,
3.409992500000000,,0b  0111  0100,
3.509790400000000,,0b  0000  0000,
3.509805400000000,,0b  1010  0001,
3.509820400000000,,0b  0000  0011,
3.509931100000000,,0b  0000  0001,
3.509946200000000,,0b  0101  1001,
3.509961200000000,,0b  0111  0100,
3.510030400000000,,0b  1000  0010,
3.510045400000000,,0b  0101  1101,
3.510060400000000,,0b  0111  0100,
3.609862800000000,,0b  0000  0000,
3.609877800000000,,0b  1010  0010,
3.609892800000000,,0b  0000  0011,
3.610003500000000,,0b  1000  0001,
3.610018600000000,,0b  0101  1000,
3.610033600000000,,0b  0111  0100,
3.610103600000000,,0b  0000  0010,
3.610118700000000,,0b  0101  1100,
3.610133700000000,,0b  0111  0100,
3.709931100000000,,0b  0000  0000,
3.709946100000000,,0b  1010  0001,
3.709961100000000,,0b  0000  0011,
3.710072600000000,,0b  1000  0001,
3.710087700000000,,0b  0101  1000,
3.710102700000000,,0b  0111  0100,
3.710170900000000,,0b  0000  0010,
3.710185900000000,,0b  0101  1100,
3.710200900000000,,0b  0111  0100,
3.810001800000000,,0b  0000  0000,
3.810016800000000,,0b  1010  0001,
3.810031800000000,,0b  0000  0011,
3.810141700000000,,0b  1000  0001,
3.810156800000000,,0b  0101  1000,
3.810171800000000,,0b  0111  0100,
3.810241800000000,,0b  0000  0010,
3.810256800000000,,0b  0101  1010,
3.810271800000000,,0b  0111  0100,
3.910071500000000,,0b  0000  0000,
3.910086500000000,,0b  1010  0010,
3.910101500000000,,0b  0000  0011,
3.910211800000000,,0b  1000  0001,
3.910226800000000,,0b  0101  0100,
3.910241900000000,,0b  0111  0100,
3.910312700000000,,0b  0000  0010,
3.910327700000000,,0b  0101  1010,
3.910342700000000,,0b  0111  0100,
4.010138900000000,,0b  0000  0000,
4.010153900000000,,0b  1010  0001,
4.010168800000000,,0b  0000  0011,
4.010278200000000,,0b  1000  0001,
4.010293300000000,,0b  0101  0100,
4.010308300000000,,0b  0111  0100,
4.010379600000000,,0b  0000  0010,
4.010394600000000,,0b  0101  1010,
4.010409600000000,,0b  0111  0100,
4.110209600000000,,0b  0000  0000,
4.110224500000000,,0b  1010  0001,
4.110239500000000,,0b  0000  0011,
4.110349300000000,,0b  1000  0001,
4.110364400000000,,0b  0101  0100,
4.110379400000000,,0b  0111  0100,
4.110450100000000,,0b  0000  0010,
4.110465200000000,,0b  0101  1010,
4.110480200000000,,0b  0111  0100,
4.210278200000000,,0b  0000  0000,
4.210293200000000,,0b  1010  0010,
4.210308200000000,,0b  0000  0011,
4.210419400000000,,0b  0000  0001,
4.210434400000000,,0b  0101  0110,
4.210449500000000,,0b  0111  0100,
4.210518000000000,,0b  0000  0010,
4.210533100000000,,0b  0101  1010,
4.210548100000000,,0b  0111  0100,
4.310349600000000,,0b  0000  0000,
4.310364600000000,,0b  1010  0010,
4.310379600000000,,0b  0000  0011,
4.310489500000000,,0b  0000  0001,
4.310504500000000,,0b  0101  0110,
4.310519600000000,,0b  0111  0100,
4.310590300000000,,0b  0000  0010,
4.310605300000000,,0b  0101  1010,
4.310620300000000,,0b  0111  0100,
4.410421600000000,,0b  0000  0000,
4.410436600000000,,0b  1010  0001,
4.410451600000000,,0b  0000  0011,
4.410562600000000,,0b  0000  0001,
4.410577600000000,,0b  0101  0110,
4.410592700000000,,0b  0111  0100,
4.410661500000000,,0b  0000  0010,
4.410676500000000,,0b  0101  1001,
4.410691500000000,,0b  0111  0100,
4.510493000000000,,0b  0000  0000,
4.510507900000000,,0b  1010  0010,
4.510522900000000,,0b  0000  0011,
4.510632700000000,,0b  0000  0001,
4.510647700000000,,0b  0101  0101,
4.510662800000000,,0b  0111  0100,
4.510732700000000,,0b  0000  0010,
4.510747700000000,,0b  0101  1001,
4.510762800000000,,0b  0111  0100,
4.610562000000000,,0b  0000  0000,
4.610577000000000,,0b  1010  0001,
4.610591900000000,,0b  0000  0011,
4.610701800000000,,0b  1000  0001,
4.610716800000000,,0b  0101  0001,
4.610731800000000,,0b  0111  0100,
4.610803600000000,,0b  1000  0010,
4.610818600000000,,0b  0101  0111,
4.610833700000000,,0b  0111  0100,
4.710629600000000,,0b  0000  0000,
4.710644600000000,,0b  1010  0010,
4.710659600000000,,0b  0000  0011,
4.710768500000000,,0b  1000  0001,
4.710783500000000,,0b  0101  0001,
4.710798600000000,,0b  0111  0100,
4.710868800000000,,0b  1000  0010,
4.710883800000000,,0b  0101  0111,
4.710898900000000,,0b  0111  0100,
4.810697000000000,,0b  0000  0000,
4.810712000000000,,0b  1010  0010,
4.810727000000000,,0b  0000  0011,
4.810836900000000,,0b  1000  0001,
4.810851900000000,,0b  0101  0001,
4.810867000000000,,0b  0111  0100,
4.810937400000000,,0b  0000  0010,
4.810952400000000,,0b  0101  1001,
4.810967400000000,,0b  0111  0100,
4.910767000000000,,0b  0000  0000,
4.910782000000000,,0b  1010  0001,
4.910797000000000,,0b  0000  0011,
4.910906300000000,,0b  1000  0001,
4.910921400000000,,0b  0101  0001,
4.910936400000000,,0b  0111  0100,
4.911007300000000,,0b  0000  0010,
4.911022300000000,,0b  0101  1001,
4.911037300000000,,0b  0111  0100,
5.010834700000000,,0b  0000  0000,
5.010849700000000,,0b  1010  0010,
5.010864700000000,,0b  0000  0011,
5.010973700000000,,0b  0000  0001,
5.010988800000000,,0b  0101  0011,
5.011003800000000,,0b  0111  0100,
5.011075100000000,,0b  0000  0010,
5.011090200000000,,0b  0101  1001,
5.011105200000000,,0b  0111  0100,
5.110901400000000,,0b  0000  0000,
5.110916400000000,,0b  1010  0001,
5.110931300000000,,0b  0000  0011,
5.111041500000000,,0b  0000  0001,
5.111056500000000,,0b  0101  0011,
5.111071500000000,,0b  0111  0100,
5.111141000000000,,0b  0000  0010,
5.111156000000000,,0b  0101  1010,
5.111171100000000,,0b  0111  0100,
5.210969700000000,,0b  0000  0000,
5.210984700000000,,0b  1010  0010,
5.210999700000000,,0b  0000  0011,
5.211110200000000,,0b  1000  0001,
5.211125200000000,,0b  0101  0100,
5.211140300000000,,0b  0111  0100,
5.211209900000000,,0b  0000  0010,
5.211224900000000,,0b  0101  1100,
5.211239900000000,,0b  0111  0100,
5.311036000000000,,0b  0000  0000,
5.311051000000000,,0b  1010  0010,
5.311066000000000,,0b  0000  0011,
5.311175900000000,,0b  1000  0001,
5.311191000000000,,0b  0101  0100,
5.311206000000000,,0b  0111  0100,
5.311278100000000,,0b  0000  0010,
5.311293100000000,,0b  0101  1100,
5.311308200000000,,0b  0111  0100,
5.411104400000000,,0b  0000  0000,
5.411119400000000,,0b  1010  0001,
5.411134400000000,,0b  0000  0011,
5.411244700000000,,0b  0000  0001,
5.411259700000000,,0b  0101  0110,
5.411274800000000,,0b  0111  0100,
5.411344300000000,,0b  1000  0010,
5.411359300000000,,0b  0101  1101,
5.411374400000000,,0b  0111  0100,
5.511173700000000,,0b  0000  0000,
5.511188700000000,,0b  1010  0010,
5.511203700000000,,0b  0000  0011,
5.511314100000000,,0b  0000  0001,
5.511329100000000,,0b  0101  0110,
5.511344200000000,,0b  0111  0100,
5.511413800000000,,0b  1000  0010,
5.511428900000000,,0b  0101  1101,
5.511443900000000,,0b  0111  0100,
5.611249700000000,,0b  0000  0000,
5.611264700000000,,0b  1010  0010,
5.611279700000000,,0b  0000  0011,
5.611389500000000,,0b  0000  0001,
5.611404500000000,,0b  0101  0110,
5.611419600000000,,0b  0111  0100,
5.611490100000000,,0b  1000  0010,
5.611505100000000,,0b  0101  1101,
5.611520100000000,,0b  0111  0100,
5.711316400000000,,0b  0000  0000,
5.711331400000000,,0b  1010  0001,
5.711346400000000,,0b  0000  0011,
5.711456900000000,,0b  0000  0001,
5.711471900000000,,0b  0101  0110,
5.711487000000000,,0b  0111  0100,
5.711555600000000,,0b  1000  0010,
5.711570600000000,,0b  0101  1101,
5.711585700000000,,0b  0111  0100,
5.811384100000000,,0b  0000  0000,
5.811399000000000,,0b  1010  0010,
5.811414000000000,,0b  0000  0011,
5.811524000000000,,0b  0000  0001,
5.811539000000000,,0b  0101  0110,
5.811554000000000,,0b  0111  0100,
5.811624100000000,,0b  1000  0010,
5.811639200000000,,0b  0101  1101,
5.811654200000000,,0b  0111  0100,
5.911453100000000,,0b  0000  0000,
5.911468100000000,,0b  1010  0001,
5.911483000000000,,0b  0000  0011,
5.911592700000000,,0b  0000  0001,
5.911607700000000,,0b  0101  0110,
5.911622800000000,,0b  0111  0100,
5.911692700000000,,0b  1000  0010,
5.911707700000000,,0b  0101  1101,
5.911722700000000,,0b  0111  0100,
6.011521100000000,,0b  0000  0000,
6.011536100000000,,0b  1010  0001,
6.011551000000000,,0b  0000  0011,
6.011661800000000,,0b  0000  0001,
6.011676800000000,,0b  0101  0110,
6.011691800000000,,0b  0111  0100,
6.011761500000000,,0b  1000  0010,
6.011776600000000,,0b  0101  1101,
6.011791600000000,,0b  0111  0100,
6.111587700000000,,0b  0000  0000,
6.111602700000000,,0b  1010  0001,
6.111617700000000,,0b  0000  0011,
6.111728500000000,,0b  0000  0001,
6.111743500000000,,0b  0101  0110,
6.111758600000000,,0b  0111  0100,
6.111828400000000,,0b  1000  0010,
6.111843400000000,,0b  0101  1101,
6.111858400000000,,0b  0111  0100,
6.211658100000000,,0b  0000  0000,
6.211673000000000,,0b  1010  0001,
6.211688000000000,,0b  0000  0011,
6.211797900000000,,0b  0000  0001,
6.211812900000000,,0b  0101  0110,
6.211828000000000,,0b  0111  0100,
6.211899300000000,,0b  1000  0010,
6.211914300000000,,0b  0101  1101,
6.211929300000000,,0b  0111  0100,
6.311727400000000,,0b  0000  0000,
6.311742400000000,,0b  1010  0001,
6.311757400000000,,0b  0000  0011,
