Time [s],Packet ID,MOSI,MISO
0.052252800000000,,0b  0000  0000,
0.052267800000000,,0b  1010  0010,
0.052282800000000,,0b  0000  0011,
0.052391900000000,,0b  1000  0001,
0.052407000000000,,0b  0011  0100,
0.052422000000000,,0b  0111  0100,
0.052491700000000,,0b  0000  0010,
0.052506700000000,,0b  0011  0110,
0.052521700000000,,0b  0111  0100,
0.152322600000000,,0b  0000  0000,
0.152337600000000,,0b  1010  0010,
0.152352600000000,,0b  0000  0011,
0.152464000000000,,0b  1000  0001,
0.152479000000000,,0b  0011  0100,
0.152494100000000,,0b  0111  0100,
0.152563400000000,,0b  0000  0010,
0.152578400000000,,0b  0011  0110,
0.152593400000000,,0b  0111  0100,
0.252391800000000,,0b  0000  0000,
0.252406700000000,,0b  1010  0010,
0.252421700000000,,0b  0000  0011,
0.252532400000000,,0b  1000  0001,
0.252547400000000,,0b  0011  0100,
0.252562500000000,,0b  0111  0100,
0.252631400000000,,0b  0000  0010,
0.252646400000000,,0b  0011  0110,
0.252661400000000,,0b  0111  0100,
0.352462200000000,,0b  0000  0000,
0.352477200000000,,0b  1010  0010,
0.352492200000000,,0b  0000  0011,
0.352602100000000,,0b  0000  0001,
0.352617200000000,,0b  0011  0101,
0.352632200000000,,0b  0111  0100,
0.352704400000000,,0b  1000  0010,
0.352719400000000,,0b  0011  0111,
0.352734500000000,,0b  0111  0100,
0.452535100000000,,0b  0000  0000,
0.452550000000000,,0b  1010  0010,
0.452565000000000,,0b  0000  0011,
0.452675600000000,,0b  0000  0001,
0.452690600000000,,0b  0011  0101,
0.452705600000000,,0b  0111  0100,
0.452774400000000,,0b  1000  0010,
0.452789500000000,,0b  0011  0111,
0.452804500000000,,0b  0111  0100,
0.552606500000000,,0b  0000  0000,
0.552621500000000,,0b  1010  0010,
0.552636500000000,,0b  0000  0011,
0.552746600000000,,0b  1000  0001,
0.552761700000000,,0b  0011  0111,
0.552776700000000,,0b  0111  0100,
0.552845500000000,,0b  1000  0010,
0.552860500000000,,0b  0011  0111,
0.552875500000000,,0b  0111  0100,
0.652675700000000,,0b  0000  0000,
0.652690700000000,,0b  1010  0010,
0.652705700000000,,0b  0000  0011,
0.652815400000000,,0b  1000  0001,
0.652830400000000,,0b  0011  0111,
0.652845400000000,,0b  0111  0100,
0.652915500000000,,0b  1000  0010,
0.652930500000000,,0b  0011  0111,
0.652945500000000,,0b  0111  0100,
0.752742900000000,,0b  0000  0000,
0.752757900000000,,0b  1010  0010,
0.752772900000000,,0b  0000  0011,
0.752881800000000,,0b  1000  0001,
0.752896800000000,,0b  0011  0111,
0.752911800000000,,0b  0111  0100,
0.752982200000000,,0b  1000  0010,
0.752997200000000,,0b  0011  1000,
0.753012200000000,,0b  0111  0100,
0.852814400000000,,0b  0000  0000,
0.852829300000000,,0b  1010  0010,
0.852844300000000,,0b  0000  0011,
0.852953500000000,,0b  1000  0001,
0.852968500000000,,0b  0011  0111,
0.852983600000000,,0b  0111  0100,
0.853052900000000,,0b  1000  0010,
0.853067900000000,,0b  0011  1000,
0.853082900000000,,0b  0111  0100,
0.952885500000000,,0b  0000  0000,
0.952900500000000,,0b  1010  0010,
0.952915500000000,,0b  0000  0011,
0.953026300000000,,0b  1000  0001,
0.953041300000000,,0b  0011  0111,
0.953056300000000,,0b  0111  0100,
0.953125600000000,,0b  1000  0010,
0.953140600000000,,0b  0011  1000,
0.953155600000000,,0b  0111  0100,
1.052957000000000,,0b  0000  0000,
1.052972000000000,,0b  1010  0010,
1.052987000000000,,0b  0000  0011,
1.053096000000000,,0b  1000  0001,
1.053111000000000,,0b  0011  1000,
1.053126100000000,,0b  0111  0100,
1.053196200000000,,0b  1000  0010,
1.053211300000000,,0b  0011  1000,
1.053226300000000,,0b  0111  0100,
1.153025200000000,,0b  0000  0000,
1.153040200000000,,0b  1010  0010,
1.153055200000000,,0b  0000  0011,
1.153165100000000,,0b  1000  0001,
1.153180100000000,,0b  0011  0111,
1.153195200000000,,0b  0111  0100,
1.153265900000000,,0b  1000  0010,
1.153281000000000,,0b  0011  1000,
1.153296000000000,,0b  0111  0100,
1.253093700000000,,0b  0000  0000,
1.253108700000000,,0b  1010  0010,
1.253123700000000,,0b  0000  0011,
1.253233500000000,,0b  1000  0001,
1.253248500000000,,0b  0011  0111,
1.253263600000000,,0b  0111  0100,
1.253335000000000,,0b  1000  0010,
1.253350000000000,,0b  0011  1000,
1.253365000000000,,0b  0111  0100,
1.353161800000000,,0b  0000  0000,
1.353176800000000,,0b  1010  0010,
1.353191800000000,,0b  0000  0011,
1.353301900000000,,0b  1000  0001,
1.353316900000000,,0b  0011  1000,
1.353332000000000,,0b  0111  0100,
1.353401700000000,,0b  0000  0010,
1.353416700000000,,0b  0011  1010,
1.353431700000000,,0b  0111  0100,
1.453233000000000,,0b  0000  0000,
1.453248000000000,,0b  1010  0010,
1.453263000000000,,0b  0000  0011,
1.453373000000000,,0b  1000  0001,
1.453388000000000,,0b  0011  1000,
1.453403100000000,,0b  0111  0100,
1.453472400000000,,0b  0000  0010,
1.453487400000000,,0b  0011  1010,
1.453502400000000,,0b  0111  0100,
1.553309500000000,,0b  0000  0000,
1.553324500000000,,0b  1010  0010,
1.553339500000000,,0b  0000  0011,
1.553450100000000,,0b  1000  0001,
1.553465100000000,,0b  0011  1000,
1.553480200000000,,0b  0111  0100,
1.553549400000000,,0b  0000  0010,
1.553564400000000,,0b  0011  1010,
1.553579500000000,,0b  0111  0100,
1.653377000000000,,0b  0000  0000,
1.653392000000000,,0b  1010  0010,
1.653407000000000,,0b  0000  0011,
1.653518200000000,,0b  1000  0001,
1.653533200000000,,0b  0011  0111,
1.653548200000000,,0b  0111  0100,
1.653617800000000,,0b  1000  0010,
1.653632800000000,,0b  0011  1000,
1.653647800000000,,0b  0111  0100,
1.753448900000000,,0b  0000  0000,
1.753463800000000,,0b  1010  0010,
1.753478800000000,,0b  0000  0011,
1.753588600000000,,0b  1000  0001,
1.753603600000000,,0b  0011  1000,
1.753618700000000,,0b  0111  0100,
1.753688100000000,,0b  1000  0010,
1.753703200000000,,0b  0011  1000,
1.753718200000000,,0b  0111  0100,
1.853519400000000,,0b  0000  0000,
1.853534300000000,,0b  1010  0010,
1.853549300000000,,0b  0000  0011,
1.853660300000000,,0b  1000  0001,
1.853675400000000,,0b  0011  0111,
1.853690400000000,,0b  0111  0100,
1.853759800000000,,0b  1000  0010,
1.853774900000000,,0b  0011  1000,
1.853789900000000,,0b  0111  0100,
1.953588500000000,,0b  0000  0000,
1.953603500000000,,0b  1010  0010,
1.953618500000000,,0b  0000  0011,
1.953727800000000,,0b  1000  0001,
1.953742800000000,,0b  0011  1000,
1.953757800000000,,0b  0111  0100,
1.953828200000000,,0b  0000  0010,
1.953843200000000,,0b  0011  1010,
1.953858300000000,,0b  0111  0100,
2.053660400000000,,0b  0000  0000,
2.053675400000000,,0b  1010  0010,
2.053690400000000,,0b  0000  0011,
2.053799500000000,,0b  1000  0001,
2.053814500000000,,0b  0011  1000,
2.053829600000000,,0b  0111  0100,
2.053899900000000,,0b  0000  0010,
2.053914900000000,,0b  0011  1010,
2.053930000000000,,0b  0111  0100,
2.153731200000000,,0b  0000  0000,
2.153746200000000,,0b  1010  0010,
2.153761200000000,,0b  0000  0011,
2.153870600000000,,0b  1000  0001,
2.153885600000000,,0b  0011  1000,
2.153900700000000,,0b  0111  0100,
2.153972000000000,,0b  0000  0010,
2.153987000000000,,0b  0011  1001,
2.154002000000000,,0b  0111  0100,
2.253797100000000,,0b  0000  0000,
2.253812000000000,,0b  1010  0010,
2.253827000000000,,0b  0000  0011,
2.253937400000000,,0b  1000  0001,
2.253952400000000,,0b  0011  1000,
2.253967400000000,,0b  0111  0100,
2.254037700000000,,0b  0000  0010,
2.254052700000000,,0b  0011  1010,
2.254067700000000,,0b  0111  0100,
2.353868600000000,,0b  0000  0000,
2.353883600000000,,0b  1010  0010,
2.353898500000000,,0b  0000  0011,
2.354007500000000,,0b  1000  0001,
2.354022500000000,,0b  0011  1000,
2.354037500000000,,0b  0111  0100,
2.354108000000000,,0b  0000  0010,
2.354123100000000,,0b  0011  1010,
2.354138100000000,,0b  0111  0100,
2.453935700000000,,0b  0000  0000,
2.453950700000000,,0b  1010  0010,
2.453965700000000,,0b  0000  0011,
2.454076900000000,,0b  1000  0001,
2.454091900000000,,0b  0011  1000,
2.454107000000000,,0b  0111  0100,
2.454176100000000,,0b  0000  0010,
2.454191100000000,,0b  0011  1010,
2.454206100000000,,0b  0111  0100,
2.554005600000000,,0b  1000  0000,
2.554020600000000,,0b  1010  0011,
2.554035600000000,,0b  0000  0011,
2.554145000000000,,0b  1000  0001,
2.554160000000000,,0b  0011  1000,
2.554175000000000,,0b  0111  0100,
2.554245500000000,,0b  0000  0010,
2.554260500000000,,0b  0011  1010,
2.554275500000000,,0b  0111  0100,
2.654081100000000,,0b  0000  0000,
2.654096100000000,,0b  1010  0010,
2.654111100000000,,0b  0000  0011,
2.654221400000000,,0b  1000  0001,
2.654236500000000,,0b  0011  1000,
2.654251500000000,,0b  0111  0100,
2.654321200000000,,0b  0000  0010,
2.654336200000000,,0b  0011  1010,
2.654351200000000,,0b  0111  0100,
2.754147600000000,,0b  1000  0000,
2.754162600000000,,0b  1010  0011,
2.754177600000000,,0b  0000  0011,
2.754287800000000,,0b  1000  0001,
2.754302900000000,,0b  0011  1000,
2.754317900000000,,0b  0111  0100,
2.754387900000000,,0b  0000  0010,
2.754402900000000,,0b  0011  1001,
2.754417900000000,,0b  0111  0100,
2.854216500000000,,0b  0000  0000,
2.854231500000000,,0b  1010  0010,
2.854246500000000,,0b  0000  0011,
2.854356300000000,,0b  1000  0001,
2.854371300000000,,0b  0011  1000,
2.854386300000000,,0b  0111  0100,
2.854455900000000,,0b  1000  0010,
2.854471000000000,,0b  0011  1000,
2.854486000000000,,0b  0111  0100,
2.954284700000000,,0b  0000  0000,
2.954299600000000,,0b  1010  0010,
2.954314600000000,,0b  0000  0011,
2.954424700000000,,0b  1000  0001,
2.954439700000000,,0b  0011  0111,
2.954454800000000,,0b  0111  0100,
2.954524300000000,,0b  1000  0010,
2.954539300000000,,0b  0011  1000,
2.954554400000000,,0b  0111  0100,
3.054351500000000,,0b  0000  0000,
3.054366500000000,,0b  1010  0010,
3.054381500000000,,0b  0000  0011,
3.054491100000000,,0b  1000  0001,
3.054506200000000,,0b  0011  0111,
3.054521200000000,,0b  0111  0100,
3.054592000000000,,0b  1000  0010,
3.054607000000000,,0b  0011  1000,
3.054622100000000,,0b  0111  0100,
3.154422400000000,,0b  0000  0000,
3.154437300000000,,0b  1010  0010,
3.154452300000000,,0b  0000  0011,
3.154561900000000,,0b  0000  0001,
3.154576900000000,,0b  0011  0101,
3.154592000000000,,0b  0111  0100,
3.154663100000000,,0b  1000  0010,
3.154678100000000,,0b  0011  0111,
3.154693100000000,,0b  0111  0100,
3.254491500000000,,0b  0000  0000,
3.254506500000000,,0b  1010  0010,
3.254521500000000,,0b  0000  0011,
3.254631000000000,,0b  0000  0001,
3.254646100000000,,0b  0011  0101,
3.254661100000000,,0b  0111  0100,
3.254732100000000,,0b  1000  0010,
3.254747200000000,,0b  0011  0111,
3.254762200000000,,0b  0111  0100,
3.354559400000000,,0b  1000  0000,
3.354574400000000,,0b  1010  0011,
3.354589400000000,,0b  0000  0011,
3.354699100000000,,0b  0000  0001,
3.354714200000000,,0b  0011  0101,
3.354729200000000,,0b  0111  0100,
3.354798500000000,,0b  1000  0010,
3.354813500000000,,0b  0011  0111,
3.354828600000000,,0b  0111  0100,
3.454627300000000,,0b  0000  0000,
3.454642200000000,,0b  1010  0010,
3.454657200000000,,0b  0000  0011,
3.454768200000000,,0b  1000  0001,
3.454783200000000,,0b  0011  0100,
3.454798300000000,,0b  0111  0100,
3.454866900000000,,0b  0000  0010,
3.454881900000000,,0b  0011  0110,
3.454897000000000,,0b  0111  0100,
3.554696400000000,,0b  0000  0000,
3.554711400000000,,0b  1010  0010,
3.554726400000000,,0b  0000  0011,
3.554836300000000,,0b  1000  0001,
3.554851400000000,,0b  0011  0010,
3.554866400000000,,0b  0111  0100,
3.554936300000000,,0b  0000  0010,
3.554951300000000,,0b  0011  0110,
3.554966300000000,,0b  0111  0100,
3.654765300000000,,0b  0000  0000,
3.654780300000000,,0b  1010  0010,
3.654795300000000,,0b  0000  0011,
3.654904100000000,,0b  1000  0001,
3.654919100000000,,0b  0011  0010,
3.654934200000000,,0b  0111  0100,
3.655003700000000,,0b  1000  0010,
3.655018700000000,,0b  0011  0100,
3.655033700000000,,0b  0111  0100,
3.754830500000000,,0b  0000  0000,
3.754845500000000,,0b  1010  0010,
3.754860500000000,,0b  0000  0011,
3.754971900000000,,0b  1000  0001,
3.754986900000000,,0b  0011  0001,
3.755001900000000,,0b  0111  0100,
3.755070700000000,,0b  0000  0010,
3.755085800000000,,0b  0011  0011,
3.755100800000000,,0b  0111  0100,
3.854900400000000,,0b  0000  0000,
3.854915300000000,,0b  1010  0010,
3.854930300000000,,0b  0000  0011,
3.855039600000000,,0b  1000  0001,
3.855054700000000,,0b  0011  0001,
3.855069700000000,,0b  0111  0100,
3.855140100000000,,0b  0000  0010,
3.855155200000000,,0b  0011  0011,
3.855170200000000,,0b  0111  0100,
3.954969200000000,,0b  0000  0000,
3.954984200000000,,0b  1010  0010,
3.954999200000000,,0b  0000  0011,
3.955108100000000,,0b  1000  0001,
3.955123100000000,,0b  0011  0001,
3.955138200000000,,0b  0111  0100,
3.955208200000000,,0b  0000  0010,
3.955223200000000,,0b  0011  0011,
3.955238200000000,,0b  0111  0100,
4.055036100000000,,0b  1000  0000,
4.055051100000000,,0b  1010  0011,
4.055066100000000,,0b  0000  0011,
4.055176200000000,,0b  1000  0001,
4.055191200000000,,0b  0010  1111,
4.055206300000000,,0b  0111  0100,
4.055275600000000,,0b  0000  0010,
4.055290600000000,,0b  0011  0011,
4.055305600000000,,0b  0111  0100,
4.155103300000000,,0b  1000  0000,
4.155118300000000,,0b  1010  0011,
4.155133300000000,,0b  0000  0011,
4.155243000000000,,0b  1000  0001,
4.155258000000000,,0b  0011  0001,
4.155273100000000,,0b  0111  0100,
4.155344000000000,,0b  1000  0010,
4.155359000000000,,0b  0011  0001,
4.155374000000000,,0b  0111  0100,
4.255172800000000,,0b  1000  0000,
4.255187800000000,,0b  1010  0011,
4.255202800000000,,0b  0000  0011,
4.255313400000000,,0b  1000  0001,
4.255328500000000,,0b  0010  1111,
4.255343500000000,,0b  0111  0100,
4.255412400000000,,0b  1000  0010,
4.255427400000000,,0b  0011  0001,
4.255442400000000,,0b  0111  0100,
4.355241700000000,,0b  1000  0000,
4.355256700000000,,0b  1010  0011,
4.355271700000000,,0b  0000  0011,
4.355381500000000,,0b  1000  0001,
4.355396600000000,,0b  0010  1111,
4.355411600000000,,0b  0111  0100,
4.355481400000000,,0b  1000  0010,
4.355496400000000,,0b  0011  0001,
4.355511500000000,,0b  0111  0100,
4.455312900000000,,0b  1000  0000,
4.455327900000000,,0b  1010  0011,
4.455342900000000,,0b  0000  0011,
4.455452300000000,,0b  1000  0001,
4.455467400000000,,0b  0010  1111,
4.455482400000000,,0b  0111  0100,
4.455552200000000,,0b  0000  0010,
4.455567200000000,,0b  0011  0000,
4.455582200000000,,0b  0111  0100,
4.555378400000000,,0b  1000  0000,
4.555393400000000,,0b  1010  0011,
4.555408400000000,,0b  0000  0011,
4.555517800000000,,0b  0000  0001,
4.555532800000000,,0b  0010  1110,
4.555547900000000,,0b  0111  0100,
4.555618200000000,,0b  1000  0010,
4.555633200000000,,0b  0011  0001,
4.555648300000000,,0b  0111  0100,
4.655445600000000,,0b  0000  0000,
4.655460600000000,,0b  1010  0001,
4.655475600000000,,0b  0000  0011,
4.655584600000000,,0b  1000  0001,
4.655599600000000,,0b  0010  1111,
4.655614600000000,,0b  0111  0100,
4.655685300000000,,0b  1000  0010,
4.655700300000000,,0b  0011  0001,
4.655715300000000,,0b  0111  0100,
4.755513200000000,,0b  0000  0000,
4.755528100000000,,0b  1010  0001,
4.755543100000000,,0b  0000  0011,
4.755653000000000,,0b  1000  0001,
4.755668100000000,,0b  0010  1111,
4.755683100000000,,0b  0111  0100,
4.755753300000000,,0b  1000  0010,
4.755768400000000,,0b  0011  0001,
4.755783400000000,,0b  0111  0100,
4.855582000000000,,0b  1000  0000,
4.855597000000000,,0b  1010  0011,
4.855612000000000,,0b  0000  0011,
4.855722500000000,,0b  1000  0001,
4.855737500000000,,0b  0010  1111,
4.855752600000000,,0b  0111  0100,
4.855823100000000,,0b  1000  0010,
4.855838100000000,,0b  0011  0001,
4.855853100000000,,0b  0111  0100,
4.955656200000000,,0b  1000  0000,
4.955671200000000,,0b  1010  0011,
4.955686200000000,,0b  0000  0011,
4.955796600000000,,0b  1000  0001,
4.955811700000000,,0b  0010  1111,
4.955826700000000,,0b  0111  0100,
4.955896200000000,,0b  1000  0010,
4.955911200000000,,0b  0011  0001,
4.955926200000000,,0b  0111  0100,
5.055727400000000,,0b  1000  0000,
5.055742400000000,,0b  1010  0011,
5.055757400000000,,0b  0000  0011,
5.055867700000000,,0b  1000  0001,
5.055882800000000,,0b  0010  1111,
5.055897800000000,,0b  0111  0100,
5.055967200000000,,0b  1000  0010,
5.055982300000000,,0b  0011  0001,
5.055997300000000,,0b  0111  0100,
5.155799000000000,,0b  1000  0000,
5.155814000000000,,0b  1010  0011,
5.155829000000000,,0b  0000  0011,
5.155937900000000,,0b  1000  0001,
5.155952900000000,,0b  0011  0001,
5.155968000000000,,0b  0111  0100,
5.156038600000000,,0b  0000  0010,
5.156053700000000,,0b  0011  0011,
5.156068700000000,,0b  0111  0100,
5.255863500000000,,0b  1000  0000,
5.255878500000000,,0b  1010  0011,
5.255893500000000,,0b  0000  0011,
5.256004000000000,,0b  1000  0001,
5.256019000000000,,0b  0011  0001,
5.256034100000000,,0b  0111  0100,
5.256104000000000,,0b  0000  0010,
5.256119100000000,,0b  0011  0011,
5.256134100000000,,0b  0111  0100,
5.355934700000000,,0b  1000  0000,
5.355949700000000,,0b  1010  0011,
5.355964700000000,,0b  0000  0011,
5.356075500000000,,0b  1000  0001,
5.356090500000000,,0b  0011  0010,
5.356105500000000,,0b  0111  0100,
5.356175500000000,,0b  1000  0010,
5.356190500000000,,0b  0011  0100,
5.356205500000000,,0b  0111  0100,
5.456003600000000,,0b  1000  0000,
5.456018600000000,,0b  1010  0011,
5.456033600000000,,0b  0000  0011,
5.456144300000000,,0b  1000  0001,
5.456159300000000,,0b  0011  0010,
5.456174300000000,,0b  0111  0100,
5.456243900000000,,0b  1000  0010,
5.456258900000000,,0b  0011  0100,
5.456273900000000,,0b  0111  0100,
5.556072500000000,,0b  1000  0000,
5.556087500000000,,0b  1010  0011,
5.556102500000000,,0b  0000  0011,
5.556212100000000,,0b  1000  0001,
5.556227100000000,,0b  0011  0010,
5.556242100000000,,0b  0111  0100,
5.556312900000000,,0b  0000  0010,
5.556328000000000,,0b  0011  0101,
5.556343000000000,,0b  0111  0100,
5.656142400000000,,0b  1000  0000,
5.656157400000000,,0b  1010  0011,
5.656172300000000,,0b  0000  0011,
5.656282500000000,,0b  1000  0001,
5.656297600000000,,0b  0011  0100,
5.656312600000000,,0b  0111  0100,
5.656384700000000,,0b  0000  0010,
5.656399700000000,,0b  0011  0101,
5.656414800000000,,0b  0111  0100,
5.756214900000000,,0b  1000  0000,
5.756229900000000,,0b  1010  0011,
5.756244900000000,,0b  0000  0011,
5.756354000000000,,0b  1000  0001,
5.756369100000000,,0b  0011  0100,
5.756384100000000,,0b  0111  0100,
5.756455400000000,,0b  0000  0010,
5.756470500000000,,0b  0011  0101,
5.756485500000000,,0b  0111  0100,
5.856283100000000,,0b  1000  0000,
5.856298100000000,,0b  1010  0011,
5.856313100000000,,0b  0000  0011,
5.856422500000000,,0b  1000  0001,
5.856437500000000,,0b  0011  0100,
5.856452600000000,,0b  0111  0100,
5.856524200000000,,0b  0000  0010,
5.856539200000000,,0b  0011  0101,
5.856554300000000,,0b  0111  0100,
5.956354300000000,,0b  1000  0000,
5.956369300000000,,0b  1010  0011,
5.956384300000000,,0b  0000  0011,
5.956494000000000,,0b  0000  0001,
5.956509000000000,,0b  0011  0101,
5.956524000000000,,0b  0111  0100,
5.956594300000000,,0b  1000  0010,
5.956609300000000,,0b  0011  0111,
5.956624300000000,,0b  0111  0100,
6.056426900000000,,0b  0000  0000,
6.056441900000000,,0b  1010  0001,
6.056456900000000,,0b  0000  0011,
6.056566500000000,,0b  0000  0001,
6.056581500000000,,0b  0011  0101,
6.056596500000000,,0b  0111  0100,
6.056665700000000,,0b  1000  0010,
6.056680700000000,,0b  0011  0111,
6.056695800000000,,0b  0111  0100,
6.156494800000000,,0b  1000  0000,
6.156509800000000,,0b  1010  0011,
6.156524800000000,,0b  0000  0011,
6.156634300000000,,0b  0000  0001,
6.156649300000000,,0b  0011  0101,
6.156664300000000,,0b  0111  0100,
6.156735100000000,,0b  1000  0010,
6.156750200000000,,0b  0011  0111,
6.156765200000000,,0b  0111  0100,
6.256566700000000,,0b  1000  0000,
6.256581600000000,,0b  1010  0011,
6.256596600000000,,0b  0000  0011,
6.256706700000000,,0b  0000  0001,
6.256721800000000,,0b  0011  0101,
6.256736800000000,,0b  0111  0100,
6.256806600000000,,0b  1000  0010,
6.256821600000000,,0b  0011  0111,
6.256836600000000,,0b  0111  0100,
6.356634900000000,,0b  0000  0000,
6.356649900000000,,0b  1010  0001,
6.356664900000000,,0b  0000  0011,
