Time [s],Packet ID,MOSI,MISO
0.068089000000000,,0b  1000  0000,
0.068104000000000,,0b  1010  0110,
0.068119000000000,,0b  0000  0011,
0.068228800000000,,0b  1000  0001,
0.068243800000000,,0b  0100  0101,
0.068258800000000,,0b  0111  0100,
0.068327700000000,,0b  1000  0010,
0.068342700000000,,0b  0100  0000,
0.068357700000000,,0b  0111  0100,
0.168160500000000,,0b  1000  0000,
0.168175500000000,,0b  1010  0101,
0.168190500000000,,0b  0000  0011,
0.168300400000000,,0b  1000  0001,
0.168315400000000,,0b  0100  0101,
0.168330500000000,,0b  0111  0100,
0.168398600000000,,0b  0000  0010,
0.168413600000000,,0b  0011  1111,
0.168428600000000,,0b  0111  0100,
0.268229100000000,,0b  1000  0000,
0.268244100000000,,0b  1010  0110,
0.268259100000000,,0b  0000  0011,
0.268368700000000,,0b  0000  0001,
0.268383700000000,,0b  0100  0100,
0.268398800000000,,0b  0111  0100,
0.268469800000000,,0b  0000  0010,
0.268484800000000,,0b  0011  1111,
0.268499800000000,,0b  0111  0100,
0.368299900000000,,0b  1000  0000,
0.368314900000000,,0b  1010  0110,
0.368329900000000,,0b  0000  0011,
0.368439700000000,,0b  0000  0001,
0.368454700000000,,0b  0100  0100,
0.368469700000000,,0b  0111  0100,
0.368538700000000,,0b  1000  0010,
0.368553700000000,,0b  0011  1110,
0.368568700000000,,0b  0111  0100,
0.468366800000000,,0b  1000  0000,
0.468381800000000,,0b  1010  0110,
0.468396800000000,,0b  0000  0011,
0.468506900000000,,0b  0000  0001,
0.468522000000000,,0b  0100  0100,
0.468537000000000,,0b  0111  0100,
0.468607200000000,,0b  1000  0010,
0.468622200000000,,0b  0011  1110,
0.468637200000000,,0b  0111  0100,
0.568437000000000,,0b  1000  0000,
0.568452000000000,,0b  1010  0110,
0.568467000000000,,0b  0000  0011,
0.568575600000000,,0b  1000  0001,
0.568590600000000,,0b  0100  0011,
0.568605600000000,,0b  0111  0100,
0.568674800000000,,0b  1000  0010,
0.568689800000000,,0b  0011  1110,
0.568704800000000,,0b  0111  0100,
0.668509900000000,,0b  1000  0000,
0.668524900000000,,0b  1010  0110,
0.668539900000000,,0b  0000  0011,
0.668650900000000,,0b  1000  0001,
0.668665900000000,,0b  0100  0011,
0.668681000000000,,0b  0111  0100,
0.668749400000000,,0b  0000  0010,
0.668764300000000,,0b  0011  1100,
0.668779300000000,,0b  0111  0100,
0.768579100000000,,0b  1000  0000,
0.768594100000000,,0b  1010  0110,
0.768609100000000,,0b  0000  0011,
0.768720200000000,,0b  1000  0001,
0.768735200000000,,0b  0100  0011,
0.768750300000000,,0b  0111  0100,
0.768817600000000,,0b  0000  0010,
0.768832600000000,,0b  0011  1100,
0.768847600000000,,0b  0111  0100,
0.868645700000000,,0b  1000  0000,
0.868660700000000,,0b  1010  0110,
0.868675700000000,,0b  0000  0011,
0.868784800000000,,0b  0000  0001,
0.868799800000000,,0b  0100  0001,
0.868814900000000,,0b  0111  0100,
0.868884100000000,,0b  0000  0010,
0.868899100000000,,0b  0011  1100,
0.868914100000000,,0b  0111  0100,
0.968715200000000,,0b  1000  0000,
0.968730200000000,,0b  1010  0110,
0.968745200000000,,0b  0000  0011,
0.968855800000000,,0b  0000  0001,
0.968870800000000,,0b  0100  0001,
0.968885800000000,,0b  0111  0100,
0.968954400000000,,0b  0000  0010,
0.968969400000000,,0b  0011  1100,
0.968984300000000,,0b  0111  0100,
1.068782500000000,,0b  1000  0000,
1.068797400000000,,0b  1010  0110,
1.068812400000000,,0b  0000  0011,
1.068922700000000,,0b  1000  0001,
1.068937800000000,,0b  0100  0011,
1.068952800000000,,0b  0111  0100,
1.069021300000000,,0b  0000  0010,
1.069036200000000,,0b  0011  1100,
1.069051200000000,,0b  0111  0100,
1.168852000000000,,0b  1000  0000,
1.168867000000000,,0b  1010  0110,
1.168882000000000,,0b  0000  0011,
1.168991400000000,,0b  0000  0001,
1.169006400000000,,0b  0100  0001,
1.169021400000000,,0b  0111  0100,
1.169089800000000,,0b  0000  0010,
1.169104800000000,,0b  0011  1100,
1.169119800000000,,0b  0111  0100,
1.268918900000000,,0b  1000  0000,
1.268933900000000,,0b  1010  0110,
1.268948900000000,,0b  0000  0011,
1.269060300000000,,0b  1000  0001,
1.269075400000000,,0b  0100  0011,
1.269090400000000,,0b  0111  0100,
1.269161400000000,,0b  0000  0010,
1.269176400000000,,0b  0011  1100,
1.269191400000000,,0b  0111  0100,
1.368986100000000,,0b  1000  0000,
1.369001100000000,,0b  1010  0110,
1.369016100000000,,0b  0000  0011,
1.369126300000000,,0b  1000  0001,
1.369141400000000,,0b  0100  0011,
1.369156400000000,,0b  0111  0100,
1.369225300000000,,0b  0000  0010,
1.369240300000000,,0b  0011  1100,
1.369255300000000,,0b  0111  0100,
1.469053700000000,,0b  1000  0000,
1.469068700000000,,0b  1010  0110,
1.469083700000000,,0b  0000  0011,
1.469193600000000,,0b  1000  0001,
1.469208700000000,,0b  0100  0011,
1.469223700000000,,0b  0111  0100,
1.469291900000000,,0b  1000  0010,
1.469306900000000,,0b  0011  1110,
1.469321800000000,,0b  0111  0100,
1.569122300000000,,0b  1000  0000,
1.569137200000000,,0b  1010  0110,
1.569152200000000,,0b  0000  0011,
1.569263300000000,,0b  0000  0001,
1.569278300000000,,0b  0100  0100,
1.569293300000000,,0b  0111  0100,
1.569361400000000,,0b  1000  0010,
1.569376400000000,,0b  0011  1110,
1.569391400000000,,0b  0111  0100,
1.669191200000000,,0b  1000  0000,
1.669206100000000,,0b  1010  0110,
1.669221100000000,,0b  0000  0011,
1.669329200000000,,0b  0000  0001,
1.669344300000000,,0b  0100  0100,
1.669359300000000,,0b  0111  0100,
1.669430700000000,,0b  1000  0010,
1.669445700000000,,0b  0011  1110,
1.669460700000000,,0b  0111  0100,
1.769258100000000,,0b  1000  0000,
1.769273000000000,,0b  1010  0110,
1.769288000000000,,0b  0000  0011,
1.769397900000000,,0b  0000  0001,
1.769412900000000,,0b  0100  0100,
1.769427900000000,,0b  0111  0100,
1.769498300000000,,0b  0000  0010,
1.769513300000000,,0b  0011  1111,
1.769528200000000,,0b  0111  0100,
1.869325600000000,,0b  1000  0000,
1.869340600000000,,0b  1010  0110,
1.869355600000000,,0b  0000  0011,
1.869466500000000,,0b  1000  0001,
1.869481600000000,,0b  0100  0101,
1.869496600000000,,0b  0111  0100,
1.869564500000000,,0b  0000  0010,
1.869579500000000,,0b  0011  1111,
1.869594500000000,,0b  0111  0100,
1.969395900000000,,0b  1000  0000,
1.969410900000000,,0b  1010  0101,
1.969425900000000,,0b  0000  0011,
1.969535500000000,,0b  1000  0001,
1.969550500000000,,0b  0100  0101,
1.969565600000000,,0b  0111  0100,
1.969634400000000,,0b  0000  0010,
1.969649400000000,,0b  0011  1111,
1.969664400000000,,0b  0111  0100,
2.069466400000000,,0b  1000  0000,
2.069481400000000,,0b  1010  0110,
2.069496400000000,,0b  0000  0011,
2.069607200000000,,0b  1000  0001,
2.069622200000000,,0b  0100  0101,
2.069637200000000,,0b  0111  0100,
2.069705000000000,,0b  0000  0010,
2.069720000000000,,0b  0011  1111,
2.069735000000000,,0b  0111  0100,
2.169534700000000,,0b  1000  0000,
2.169549700000000,,0b  1010  0110,
2.169564700000000,,0b  0000  0011,
2.169675100000000,,0b  1000  0001,
2.169690200000000,,0b  0100  0101,
2.169705200000000,,0b  0111  0100,
2.169773900000000,,0b  1000  0010,
2.169788900000000,,0b  0100  0000,
2.169803900000000,,0b  0111  0100,
2.269603300000000,,0b  1000  0000,
2.269618300000000,,0b  1010  0110,
2.269633300000000,,0b  0000  0011,
2.269743500000000,,0b  0000  0001,
2.269758500000000,,0b  0100  0111,
2.269773500000000,,0b  0111  0100,
2.269842500000000,,0b  1000  0010,
2.269857500000000,,0b  0100  0000,
2.269872500000000,,0b  0111  0100,
2.369675500000000,,0b  1000  0000,
2.369690500000000,,0b  1010  0110,
2.369705500000000,,0b  0000  0011,
2.369816500000000,,0b  0000  0001,
2.369831500000000,,0b  0100  0111,
2.369846500000000,,0b  0111  0100,
2.369914700000000,,0b  1000  0010,
2.369929700000000,,0b  0100  0000,
2.369944700000000,,0b  0111  0100,
2.469746800000000,,0b  1000  0000,
2.469761800000000,,0b  1010  0110,
2.469776700000000,,0b  0000  0011,
2.469886100000000,,0b  0000  0001,
2.469901100000000,,0b  0100  1000,
2.469916200000000,,0b  0111  0100,
2.469984900000000,,0b  1000  0010,
2.469999900000000,,0b  0100  0011,
2.470014900000000,,0b  0111  0100,
2.569813000000000,,0b  1000  0000,
2.569828000000000,,0b  1010  0110,
2.569843000000000,,0b  0000  0011,
2.569952100000000,,0b  0000  0001,
2.569967100000000,,0b  0100  1000,
2.569982200000000,,0b  0111  0100,
2.570051500000000,,0b  1000  0010,
2.570066500000000,,0b  0100  0011,
2.570081500000000,,0b  0111  0100,
2.669879300000000,,0b  1000  0000,
2.669894300000000,,0b  1010  0110,
2.669909300000000,,0b  0000  0011,
2.670020400000000,,0b  1000  0001,
2.670035400000000,,0b  0100  1010,
2.670050500000000,,0b  0111  0100,
2.670118800000000,,0b  1000  0010,
2.670133800000000,,0b  0100  0011,
2.670148700000000,,0b  0111  0100,
2.769948500000000,,0b  1000  0000,
2.769963500000000,,0b  1010  0101,
2.769978500000000,,0b  0000  0011,
2.770087400000000,,0b  1000  0001,
2.770102400000000,,0b  0100  1010,
2.770117500000000,,0b  0111  0100,
2.770187700000000,,0b  1000  0010,
2.770202700000000,,0b  0100  0101,
2.770217700000000,,0b  0111  0100,
2.870017500000000,,0b  1000  0000,
2.870032400000000,,0b  1010  0110,
2.870047400000000,,0b  0000  0011,
2.870157400000000,,0b  1000  0001,
2.870172400000000,,0b  0100  1010,
2.870187500000000,,0b  0111  0100,
2.870255300000000,,0b  1000  0010,
2.870270300000000,,0b  0100  0011,
2.870285300000000,,0b  0111  0100,
2.970091400000000,,0b  1000  0000,
2.970106400000000,,0b  1010  0110,
2.970121400000000,,0b  0000  0011,
2.970232400000000,,0b  1000  0001,
2.970247400000000,,0b  0100  1010,
2.970262500000000,,0b  0111  0100,
2.970330200000000,,0b  1000  0010,
2.970345200000000,,0b  0100  0101,
2.970360200000000,,0b  0111  0100,
3.070162000000000,,0b  1000  0000,
3.070177000000000,,0b  1010  0110,
3.070192000000000,,0b  0000  0011,
3.070301700000000,,0b  1000  0001,
3.070316800000000,,0b  0100  1010,
3.070331800000000,,0b  0111  0100,
3.070401200000000,,0b  1000  0010,
3.070416200000000,,0b  0100  0101,
3.070431100000000,,0b  0111  0100,
3.170233300000000,,0b  1000  0000,
3.170248200000000,,0b  1010  0110,
3.170263200000000,,0b  0000  0011,
3.170374100000000,,0b  1000  0001,
3.170389100000000,,0b  0100  1010,
3.170404100000000,,0b  0111  0100,
3.170472800000000,,0b  1000  0010,
3.170487800000000,,0b  0100  0011,
3.170502800000000,,0b  0111  0100,
3.270299200000000,,0b  1000  0000,
3.270314200000000,,0b  1010  0110,
3.270329200000000,,0b  0000  0011,
3.270438700000000,,0b  0000  0001,
3.270453800000000,,0b  0100  1000,
3.270468800000000,,0b  0111  0100,
3.270538100000000,,0b  1000  0010,
3.270553000000000,,0b  0100  0011,
3.270568000000000,,0b  0111  0100,
3.370371500000000,,0b  1000  0000,
3.370386400000000,,0b  1010  0110,
3.370401400000000,,0b  0000  0011,
3.370510700000000,,0b  0000  0001,
3.370525800000000,,0b  0100  1000,
3.370540800000000,,0b  0111  0100,
3.370609300000000,,0b  0000  0010,
3.370624300000000,,0b  0100  0010,
3.370639300000000,,0b  0111  0100,
3.470438400000000,,0b  1000  0000,
3.470453400000000,,0b  1010  0110,
3.470468400000000,,0b  0000  0011,
3.470579100000000,,0b  0000  0001,
3.470594100000000,,0b  0100  1000,
3.470609100000000,,0b  0111  0100,
3.470678600000000,,0b  0000  0010,
3.470693600000000,,0b  0100  0010,
3.470708600000000,,0b  0111  0100,
3.570508700000000,,0b  1000  0000,
3.570523700000000,,0b  1010  0110,
3.570538700000000,,0b  0000  0011,
3.570648100000000,,0b  0000  0001,
3.570663100000000,,0b  0100  1000,
3.570678100000000,,0b  0111  0100,
3.570746900000000,,0b  0000  0010,
3.570761900000000,,0b  0100  0010,
3.570776900000000,,0b  0111  0100,
3.670577900000000,,0b  1000  0000,
3.670592900000000,,0b  1010  0110,
3.670607900000000,,0b  0000  0011,
3.670717400000000,,0b  0000  0001,
3.670732400000000,,0b  0100  1000,
3.670747500000000,,0b  0111  0100,
3.670817500000000,,0b  0000  0010,
3.670832500000000,,0b  0100  0010,
3.670847500000000,,0b  0111  0100,
3.770650600000000,,0b  1000  0000,
3.770665500000000,,0b  1010  0110,
3.770680500000000,,0b  0000  0011,
3.770789400000000,,0b  0000  0001,
3.770804500000000,,0b  0100  0111,
3.770819500000000,,0b  0111  0100,
3.770888800000000,,0b  0000  0010,
3.770903800000000,,0b  0100  0010,
3.770918800000000,,0b  0111  0100,
3.870718200000000,,0b  1000  0000,
3.870733200000000,,0b  1010  0110,
3.870748200000000,,0b  0000  0011,
3.870858800000000,,0b  0000  0001,
3.870873800000000,,0b  0100  0111,
3.870888800000000,,0b  0111  0100,
3.870956800000000,,0b  1000  0010,
3.870971700000000,,0b  0100  0000,
3.870986700000000,,0b  0111  0100,
3.970789500000000,,0b  1000  0000,
3.970804400000000,,0b  1010  0110,
3.970819400000000,,0b  0000  0011,
3.970930800000000,,0b  0000  0001,
3.970945800000000,,0b  0100  0111,
3.970960800000000,,0b  0111  0100,
3.971029700000000,,0b  0000  0010,
3.971044700000000,,0b  0100  0010,
3.971059700000000,,0b  0111  0100,
4.070861400000000,,0b  1000  0000,
4.070876400000000,,0b  1010  0110,
4.070891400000000,,0b  0000  0011,
4.071002100000000,,0b  0000  0001,
4.071017200000000,,0b  0100  0111,
4.071032200000000,,0b  0111  0100,
4.071101700000000,,0b  0000  0010,
4.071116700000000,,0b  0100  0010,
4.071131700000000,,0b  0111  0100,
4.170930700000000,,0b  1000  0000,
4.170945700000000,,0b  1010  0110,
4.170960700000000,,0b  0000  0011,
4.171070100000000,,0b  1000  0001,
4.171085200000000,,0b  0100  0101,
4.171100200000000,,0b  0111  0100,
4.171169300000000,,0b  1000  0010,
4.171184300000000,,0b  0100  0000,
4.171199300000000,,0b  0111  0100,
4.271001300000000,,0b  1000  0000,
4.271016300000000,,0b  1010  0110,
4.271031300000000,,0b  0000  0011,
4.271141800000000,,0b  1000  0001,
4.271156900000000,,0b  0100  0101,
4.271171900000000,,0b  0111  0100,
4.271240900000000,,0b  1000  0010,
4.271255900000000,,0b  0100  0000,
4.271270900000000,,0b  0111  0100,
4.371070300000000,,0b  1000  0000,
4.371085300000000,,0b  1010  0110,
4.371100200000000,,0b  0000  0011,
4.371209800000000,,0b  1000  0001,
4.371224900000000,,0b  0100  0101,
4.371239900000000,,0b  0111  0100,
4.371310600000000,,0b  0000  0010,
4.371325600000000,,0b  0011  1111,
4.371340600000000,,0b  0111  0100,
4.471141900000000,,0b  1000  0000,
4.471156900000000,,0b  1010  0110,
4.471171900000000,,0b  0000  0011,
4.471281900000000,,0b  0000  0001,
4.471296900000000,,0b  0100  0100,
4.471311900000000,,0b  0111  0100,
4.471381900000000,,0b  0000  0010,
4.471396900000000,,0b  0011  1111,
4.471411900000000,,0b  0111  0100,
4.571211200000000,,0b  1000  0000,
4.571226200000000,,0b  1010  0101,
4.571241200000000,,0b  0000  0011,
4.571351900000000,,0b  0000  0001,
4.571366900000000,,0b  0100  0100,
4.571381900000000,,0b  0111  0100,
4.571449800000000,,0b  1000  0010,
4.571464800000000,,0b  0011  1110,
4.571479800000000,,0b  0111  0100,
4.671277500000000,,0b  1000  0000,
4.671292500000000,,0b  1010  0110,
4.671307500000000,,0b  0000  0011,
4.671417900000000,,0b  1000  0001,
4.671432900000000,,0b  0100  0011,
4.671448000000000,,0b  0111  0100,
4.671516800000000,,0b  1000  0010,
4.671531800000000,,0b  0011  1110,
4.671546800000000,,0b  0111  0100,
4.771348800000000,,0b  1000  0000,
4.771363800000000,,0b  1010  0110,
4.771378800000000,,0b  0000  0011,
4.771489200000000,,0b  1000  0001,
4.771504300000000,,0b  0100  0011,
4.771519300000000,,0b  0111  0100,
4.771588100000000,,0b  1000  0010,
4.771603100000000,,0b  0011  1110,
4.771618100000000,,0b  0111  0100,
4.871418400000000,,0b  1000  0000,
4.871433400000000,,0b  1010  0110,
4.871448400000000,,0b  0000  0011,
4.871558600000000,,0b  1000  0001,
4.871573600000000,,0b  0100  0011,
4.871588700000000,,0b  0111  0100,
4.871657800000000,,0b  1000  0010,
4.871672800000000,,0b  0011  1110,
4.871687800000000,,0b  0111  0100,
4.971489100000000,,0b  0000  0000,
4.971504000000000,,0b  1010  0100,
4.971519000000000,,0b  0000  0011,
4.971628300000000,,0b  1000  0001,
4.971643300000000,,0b  0100  0011,
4.971658400000000,,0b  0111  0100,
4.971727800000000,,0b  0000  0010,
4.971742700000000,,0b  0011  1100,
4.971757700000000,,0b  0111  0100,
5.071556000000000,,0b  1000  0000,
5.071571000000000,,0b  1010  0110,
5.071586000000000,,0b  0000  0011,
5.071695600000000,,0b  1000  0001,
5.071710700000000,,0b  0100  0011,
5.071725700000000,,0b  0111  0100,
5.071794700000000,,0b  0000  0010,
5.071809700000000,,0b  0011  1100,
5.071824700000000,,0b  0111  0100,
5.171622700000000,,0b  1000  0000,
5.171637700000000,,0b  1010  0110,
5.171652600000000,,0b  0000  0011,
5.171763000000000,,0b  1000  0001,
5.171778000000000,,0b  0100  0011,
5.171793100000000,,0b  0111  0100,
5.171862100000000,,0b  0000  0010,
5.171877000000000,,0b  0011  1100,
5.171892000000000,,0b  0111  0100,
5.271692600000000,,0b  1000  0000,
5.271707600000000,,0b  1010  0110,
5.271722600000000,,0b  0000  0011,
5.271833400000000,,0b  1000  0001,
5.271848400000000,,0b  0100  0011,
5.271863400000000,,0b  0111  0100,
5.271931400000000,,0b  0000  0010,
5.271946400000000,,0b  0011  1100,
5.271961400000000,,0b  0111  0100,
5.371763600000000,,0b  1000  0000,
5.371778600000000,,0b  1010  0110,
5.371793600000000,,0b  0000  0011,
5.371903000000000,,0b  0000  0001,
5.371918100000000,,0b  0100  0100,
5.371933100000000,,0b  0111  0100,
5.372002400000000,,0b  1000  0010,
5.372017400000000,,0b  0011  1110,
5.372032300000000,,0b  0111  0100,
5.471832300000000,,0b  1000  0000,
5.471847300000000,,0b  1010  0110,
5.471862300000000,,0b  0000  0011,
5.471972700000000,,0b  0000  0001,
5.471987800000000,,0b  0100  0100,
5.472002800000000,,0b  0111  0100,
5.472071700000000,,0b  1000  0010,
5.472086700000000,,0b  0011  1110,
5.472101700000000,,0b  0111  0100,
5.571900600000000,,0b  1000  0000,
5.571915600000000,,0b  1010  0110,
5.571930600000000,,0b  0000  0011,
5.572041400000000,,0b  1000  0001,
5.572056500000000,,0b  0100  0101,
5.572071500000000,,0b  0111  0100,
5.572140000000000,,0b  1000  0010,
5.572155000000000,,0b  0011  1110,
5.572170000000000,,0b  0111  0100,
5.671972900000000,,0b  1000  0000,
5.671987900000000,,0b  1010  0110,
5.672002900000000,,0b  0000  0011,
5.672112100000000,,0b  1000  0001,
5.672127200000000,,0b  0100  0101,
5.672142200000000,,0b  0111  0100,
5.672211700000000,,0b  0000  0010,
5.672226700000000,,0b  0011  1111,
5.672241700000000,,0b  0111  0100,
5.772043600000000,,0b  1000  0000,
5.772058500000000,,0b  1010  0110,
5.772073500000000,,0b  0000  0011,
5.772184200000000,,0b  1000  0001,
5.772199200000000,,0b  0100  0101,
5.772214200000000,,0b  0111  0100,
5.772284000000000,,0b  1000  0010,
5.772299000000000,,0b  0100  0000,
5.772314000000000,,0b  0111  0100,
5.872109900000000,,0b  1000  0000,
5.872124900000000,,0b  1010  0110,
5.872139900000000,,0b  0000  0011,
5.872250200000000,,0b  0000  0001,
5.872265200000000,,0b  0100  0111,
5.872280300000000,,0b  0111  0100,
5.872349300000000,,0b  1000  0010,
5.872364300000000,,0b  0100  0000,
5.872379300000000,,0b  0111  0100,
5.972176500000000,,0b  1000  0000,
5.972191500000000,,0b  1010  0110,
5.972206500000000,,0b  0000  0011,
5.972317600000000,,0b  0000  0001,
5.972332600000000,,0b  0100  0111,
5.972347600000000,,0b  0111  0100,
5.972416000000000,,0b  1000  0010,
5.972431000000000,,0b  0100  0000,
5.972446000000000,,0b  0111  0100,
6.072248200000000,,0b  1000  0000,
6.072263200000000,,0b  1010  0110,
6.072278200000000,,0b  0000  0011,
6.072388900000000,,0b  0000  0001,
6.072404000000000,,0b  0100  0111,
6.072419000000000,,0b  0111  0100,
6.072486700000000,,0b  1000  0010,
6.072501700000000,,0b  0100  0000,
6.072516700000000,,0b  0111  0100,
6.172316900000000,,0b  1000  0000,
6.172331800000000,,0b  1010  0110,
6.172346800000000,,0b  0000  0011,
6.172457000000000,,0b  0000  0001,
6.172472000000000,,0b  0100  0111,
6.172487000000000,,0b  0111  0100,
6.172555000000000,,0b  1000  0010,
6.172570000000000,,0b  0100  0000,
6.172585000000000,,0b  0111  0100,
6.272391200000000,,0b  1000  0000,
6.272406200000000,,0b  1010  0110,
6.272421200000000,,0b  0000  0011,
6.272531400000000,,0b  0000  0001,
6.272546400000000,,0b  0100  0111,
6.272561400000000,,0b  0111  0100,
6.272631700000000,,0b  1000  0010,
6.272646700000000,,0b  0100  0000,
6.272661700000000,,0b  0111  0100,
6.372460900000000,,0b  1000  0000,
6.372475800000000,,0b  1010  0110,
6.372490800000000,,0b  0000  0011,
